! ListType=Lin
!
!Created with skrf (http://scikit-rf.org).
# MHz S RI R 50.0 
!freq ReS11 ImS11
1.0 0.9993240232370144 -0.04268185192212052
1.124875 0.9989953508700985 -0.04805351499648173
1.24975 0.9987817794369839 -0.05337607523763116
1.374625 0.9983546902826478 -0.05845231629772678
1.4995 0.998003447942955 -0.0640768364907213
1.624375 0.9975931119230198 -0.06882194394215578
1.74925 0.9972245912154596 -0.074354049739638
1.874125 0.9966756256996772 -0.08020672764558104
1.999 0.9970736714861161 -0.08555401178017737
2.123875 0.9959219142624731 -0.08981814005631092
2.24875 0.9952105445122457 -0.09598950346137711
2.373625 0.9948011748798171 -0.1011784221051069
2.4985 0.9944403399963998 -0.10689136044232514
2.623375 0.994110389872002 -0.11192711732123489
2.74825 0.993112731968431 -0.11684505502318232
2.873125 0.9926893435175949 -0.12221320530439632
2.998 0.9930671287462336 -0.12775045216672587
3.122875 0.991203701592619 -0.13260219117945968
3.24775 0.9905314145354966 -0.1378340987488397
3.372625 0.9896306888545947 -0.14304128006771147
3.4975 0.9891974778008296 -0.1485873603993086
3.622375 0.9878814623353228 -0.15356541408356678
3.74725 0.9878799926511268 -0.15905512238792657
3.872125 0.9868280287943696 -0.16449547754743235
3.997 0.9856458536798584 -0.16974639523679047
4.121875 0.984593639694828 -0.17438047061500334
4.24675 0.9844489751468771 -0.18000897094920104
4.371625 0.9832756821014697 -0.18543572356353222
4.4965 0.9818221544973479 -0.19017096933916827
4.621375 0.9811839010213594 -0.19563101297999957
4.74625 0.9798878825254348 -0.20042759696040852
4.871125 0.9784552773273695 -0.20587817617785764
4.996 0.9777674843751599 -0.21127832321441675
5.120875 0.9768908916799337 -0.216502791131554
5.24575 0.9753063301811723 -0.22101932500698707
5.370625 0.9745106981088721 -0.22639179478774
5.4955 0.9722086442941293 -0.23166008943118335
5.620375 0.9720820935049239 -0.237127831695153
5.74525 0.9710316838975525 -0.2421179763379926
5.870125 0.9684916172675132 -0.24665273834422563
5.995 0.9685472339317219 -0.25202402375562705
6.119875 0.966551952784941 -0.2572291380425229
6.24475 0.9652079241444003 -0.2621127423598393
6.369625 0.9640024348374084 -0.2669274411527017
6.4945 0.9628554054880905 -0.27219055688106303
6.619375 0.9612309154870659 -0.2770287731839113
6.74425 0.9593946920530062 -0.2821986279184425
6.869125 0.9585344867944035 -0.28769001460843213
6.994 0.9563759734637097 -0.2920968689950644
7.118875 0.9555584821384905 -0.2970592726749769
7.24375 0.9534987924206008 -0.30229851795147444
7.368625 0.9519430881357525 -0.30699475153599687
7.4935 0.9503015658943349 -0.312169079493784
7.618375 0.9485807282907908 -0.31741824603401403
7.74325 0.9470813235470674 -0.3215757599640361
7.868125 0.9450829111874836 -0.327382297805677
7.993 0.9433071018655413 -0.3316572862034831
8.117875 0.9425567090094229 -0.3370108036659104
8.24275 0.9404288945284492 -0.34160798167556927
8.367625 0.9381914063535395 -0.34640224639751477
8.4925 0.9374138189402954 -0.35148141958588675
8.617375 0.9351366342218478 -0.3565599667043371
8.74225 0.9330891008217523 -0.360671118004603
8.867125 0.9308989792495002 -0.3661331521908754
8.992 0.9293436998275135 -0.3707215940047013
9.116875 0.9275670009143144 -0.3754461588079055
9.24175 0.9253657396433776 -0.38017961375052634
9.366625 0.9238994333089999 -0.3850905016351903
9.4915 0.9215344609890561 -0.3897815443521403
9.616375 0.9196101542817823 -0.3942887883726489
9.74125 0.9173877344560185 -0.39898730191493903
9.866125 0.915125795748259 -0.4040761988113267
9.991 0.9141040191337702 -0.408678381519602
10.115875 0.9116155915981562 -0.4139350256157149
10.24075 0.909165330506273 -0.41769777919982354
10.365625 0.9072688843193507 -0.42249953241156746
10.4905 0.9047412791776325 -0.42708392286932484
10.615375 0.9030097952838763 -0.4320601664759529
10.74025 0.9011657910531106 -0.43593512338097795
10.865125 0.898733485326029 -0.4408394394342922
10.99 0.8956692764618683 -0.44582937082966456
11.114875 0.8937013479140236 -0.44920986481780295
11.23975 0.8922279781619187 -0.4540991751948996
11.364625 0.8897056394607346 -0.4585757035193774
11.4895 0.8873030625352443 -0.463312768720126
11.614375 0.8845608007254327 -0.467541620865945
11.73925 0.8821036808758669 -0.472735569573429
11.864125 0.8799291690502958 -0.4772109335060932
11.989 0.8775431094760685 -0.48093567059949893
12.113875 0.8753334350753721 -0.4844108861699773
12.23875 0.8730680107374886 -0.4900777287417362
12.363625 0.8703139182604156 -0.4937133453553979
12.4885 0.8672088715584894 -0.49903411662153546
12.613375 0.8654410938408834 -0.5027759266187126
12.73825 0.8629190838035319 -0.5074931023960014
12.863125 0.8606059524343972 -0.5121099325645448
12.988 0.8574432710426518 -0.5158927715351791
13.112875 0.8554767118663841 -0.5199502845812086
13.23775 0.8529381098677189 -0.5244232392706278
13.362625 0.8502783978112232 -0.5286307616084145
13.4875 0.8472446562436763 -0.5331694413183723
13.612375 0.843776740194893 -0.5360762360086568
13.73725 0.8426528759440236 -0.541474810480633
13.862125 0.8400980174861441 -0.5446506077214528
13.987 0.8361415986358687 -0.5491510818371432
14.111875 0.8340222284735904 -0.5524563338514539
14.23675 0.8319917996196474 -0.5573295629960849
14.361625 0.8295350528845139 -0.5616073874151909
14.4865 0.8258050434077961 -0.5658145847084596
14.611375 0.822795518525957 -0.5694587007821846
14.73625 0.8204253435517803 -0.5730955480372666
14.861125 0.8179081715560248 -0.5776646511167027
14.986 0.8148577516259344 -0.581314081151032
15.110875 0.8118441866634487 -0.5853249409390182
15.23575 0.810131358443274 -0.5891993103720027
15.360625 0.806223839661213 -0.5929246796654376
15.4855 0.803923022231851 -0.5963021649425981
15.610375 0.8008885354600416 -0.6009890812879893
15.73525 0.798385003484893 -0.6048137179530739
15.860125 0.7949300465785126 -0.6084806170616995
15.985 0.7921602600470755 -0.6122548015442051
16.109875 0.7892031185503324 -0.6166189683292777
16.23475 0.7864707832362787 -0.6199933396492132
16.359625 0.7834860467534421 -0.6237786599441535
16.4845 0.7800704514260143 -0.6271911109323163
16.609375 0.7777459556977974 -0.6306998487218922
16.73425 0.7745192021206343 -0.6348218870652909
16.859125 0.7712882668165773 -0.6385578981183644
16.984 0.7684291247352973 -0.6418734191900803
17.108875 0.7656726057605276 -0.6455946880151242
17.23375 0.7625662309922515 -0.6492594234062431
17.358625 0.7593437511831636 -0.6528514666031353
17.4835 0.7561818805562119 -0.6562344203859027
17.608375 0.7524684824133313 -0.659573630969509
17.73325 0.7500050400007573 -0.6626540659213268
17.858125 0.7473338197809756 -0.6678110418348819
17.983 0.7441148134575559 -0.6702870421241851
18.107875 0.7409238141016773 -0.6738968712887627
18.23275 0.7376906025507699 -0.6770513526733444
18.357625 0.7349323937557152 -0.6811464434981932
18.4825 0.7320241832162806 -0.6835471517350085
18.607375 0.728841449560846 -0.6875169153647118
18.73225 0.7250682603287998 -0.6912807258499494
18.857125 0.721985289134029 -0.6945654104189236
18.982 0.718482723830032 -0.6970089398912067
19.106875 0.7151302950250009 -0.7005992445049045
19.23175 0.7120673392000958 -0.7040897331239286
19.356625 0.7089807063145429 -0.7076154891386099
19.4815 0.7058418439385289 -0.7108976824647184
19.606375 0.7019543998303222 -0.7142267945382259
19.73125 0.6999658125542214 -0.7174092470671423
19.856125 0.6962396467643304 -0.7195243601507705
19.981 0.693274441400523 -0.7233007170738376
20.105875 0.6898298563068427 -0.7264247959960917
20.23075 0.6864075635454912 -0.7295602119180782
20.355625 0.6837128378106491 -0.7318909521365774
20.4805 0.6799940429866999 -0.7353894415809283
20.605375 0.6772408902567624 -0.7388547414182096
20.73025 0.6733898665870663 -0.7413949689960551
20.855125 0.6706123315965424 -0.7448127495109597
20.98 0.6668608952562906 -0.7479024376438261
21.104875 0.6632626852040034 -0.7513140655165806
21.22975 0.6598848028378261 -0.7533024863262126
21.354625 0.6569382995682227 -0.7568650319311986
21.4795 0.653519328302863 -0.7591520283815696
21.604375 0.6504691222997363 -0.7625982815694063
21.72925 0.6470068375483913 -0.7648698089088176
21.854125 0.6435923298655787 -0.7678551052089966
21.979 0.6396298823522469 -0.7708809815290434
22.103875 0.6369257661884653 -0.773921066563773
22.22875 0.6335811270074747 -0.7763714749689967
22.353625 0.6301009831937914 -0.7793265327530685
22.4785 0.6259427899849891 -0.7814963637875013
22.603375 0.6234208013368971 -0.7844517209353841
22.72825 0.6203056152501658 -0.7877697406279187
22.853125 0.6165899446641856 -0.7899674985308125
22.978 0.6127399248304511 -0.792035796370504
23.102875 0.609532194912753 -0.7945562012255394
23.22775 0.6064435633706761 -0.7974087677224049
23.352625 0.6039040100484723 -0.8002786816128904
23.4775 0.5990907379468478 -0.8030151292726005
23.602375 0.5961746726326489 -0.8051430709756342
23.72725 0.5922021096131436 -0.8083544697767118
23.852125 0.5888699538316932 -0.810735287056784
23.977 0.5863063911251378 -0.8130538170993449
24.101875 0.581647260386007 -0.8162243319836453
24.22675 0.5784858252045812 -0.8179112563679998
24.351625 0.5756207761781699 -0.820706936282511
24.4765 0.5711388547495292 -0.8232273374483492
24.601375 0.56805194062318 -0.8256947896634113
24.72625 0.5648172603500439 -0.8281400525625109
24.851125 0.5616780672652618 -0.8303373290929397
24.976 0.5586972989756441 -0.8324183677093326
25.100875 0.5548864114635941 -0.8346784008322454
25.22575 0.5516710700644513 -0.8370401769110669
25.350625 0.5479120064996675 -0.83894665394068
25.4755 0.5444269151178651 -0.8423104948471962
25.600375 0.540960709642453 -0.8435381481003538
25.72525 0.536984619327571 -0.8460960317311602
25.850125 0.5343031737207018 -0.847835678167671
25.975 0.5298417340987982 -0.8501360059505119
26.099875 0.526716317273799 -0.8523567164745969
26.22475 0.5236255678098158 -0.8549167128421844
26.349625 0.5200568055095629 -0.8570046666737315
26.4745 0.5155873255303358 -0.8583032961171171
26.599375 0.5131314351190398 -0.860899580762458
26.72425 0.5098147698311616 -0.8632191238808731
26.849125 0.505826856189279 -0.8650247195190317
26.974 0.5027788853520967 -0.8665785794367851
27.098875 0.49901209427637006 -0.8693574090062464
27.22375 0.49588896650217223 -0.8709965403490492
27.348625 0.4926163423119534 -0.8732393449700949
27.4735 0.48897914662622577 -0.8752795343240944
27.598375 0.48596002511237263 -0.8768949842865548
27.72325 0.48150593678738546 -0.8785381093763365
27.848125 0.47792261828526045 -0.8804939626961014
27.973 0.4748466938574144 -0.8830851759420266
28.097875 0.4713631440088801 -0.8848271162084355
28.22275 0.4678133272704882 -0.8862477864727607
28.347625 0.46492235605278787 -0.8881646034936969
28.4725 0.4617203205634338 -0.889997805270343
28.597375 0.4580860832472548 -0.8923465592339208
28.72225 0.4546797802294334 -0.8936661419959449
28.847125 0.450778913008696 -0.8955330455744055
28.972 0.44702949668777925 -0.897160926350695
29.096875 0.4436844835921909 -0.8992182414039818
29.22175 0.43979277386096105 -0.9007547669234974
29.346625 0.4377856494269891 -0.9022767209533109
29.4715 0.4337087765071338 -0.9034282831608555
29.596375 0.43083099656192386 -0.9057944303056769
29.72125 0.4266174851237035 -0.9069113886877478
29.846125 0.4234683592706194 -0.908575344790833
29.971 0.42010984256795647 -0.9097087446206853
30.095875 0.41658577962167914 -0.9121445660688887
30.22075 0.41281124509094647 -0.9133653606283698
30.345625 0.4091703425285397 -0.9152959697817726
30.4705 0.4057171692730257 -0.9170449455965883
30.595375 0.40255285550016073 -0.9179158119389639
30.72025 0.4000415533696699 -0.9197544469244083
30.845125 0.395772647602092 -0.9212076889243019
30.97 0.3924964648010184 -0.9224841998580076
31.094875 0.38871256745954524 -0.9244397380847766
31.21975 0.3861882297240715 -0.925225668116327
31.344625 0.3830462816044059 -0.9268784393228412
31.4695 0.3785633083377992 -0.9286840048762464
31.594375 0.3756752191786612 -0.9296415577492408
31.71925 0.37191124483330096 -0.9312990714890815
31.844125 0.36864617995387666 -0.9327539762126611
31.969 0.3651660350356458 -0.9341056029529666
32.093875 0.36187888045640626 -0.9357012551866101
32.21875 0.3580246351217247 -0.9366461408332919
32.343625 0.3549336125537037 -0.9379938854617487
32.4685 0.35150119804829844 -0.9385069556817325
32.593375 0.3491005508724301 -0.9400428255772056
32.71825 0.3449019491757429 -0.941636270674191
32.843125 0.3418646842623517 -0.9418093254836666
32.968 0.33790886187248625 -0.9440474396671692
33.092875 0.3347771122958175 -0.945673106666197
33.21775 0.3305549779738821 -0.9460119521344896
33.342625 0.3277309402028254 -0.9477245151644921
33.4675 0.32461533597639824 -0.9481771558021814
33.592375 0.3218766188036261 -0.9507548073166907
33.71725 0.31760443423951684 -0.9523355225271993
33.842125 0.3150800450382253 -0.9517530764885803
33.967 0.3115598843760072 -0.9526535265538528
34.091875 0.30787156868634574 -0.9540131260476024
34.21675 0.3046991506894696 -0.9555711247879249
34.341625 0.3017161438036916 -0.9572150383331943
34.4665 0.29810115009887667 -0.956803192653644
34.591375 0.29421883225632434 -0.9580117496551457
34.71625 0.2915753983665676 -0.9598135617698275
34.841125 0.28738387316664077 -0.9604284736218391
34.966 0.28473475710576157 -0.9613717778499449
35.090875 0.2814785313875916 -0.9622604351981254
35.21575 0.27783709646842225 -0.9636026808118225
35.340625 0.27470416285338634 -0.9642213784666742
35.4655 0.2716580231109969 -0.9652087487380363
35.590375 0.2691184013677692 -0.9659792129352716
35.71525 0.2642932024937317 -0.9672785740954299
35.840125 0.26187628992646333 -0.967900441142503
35.965 0.25929335698464184 -0.968502369088489
36.089875 0.2560888448962269 -0.9690986463615279
36.21475 0.2513764196283617 -0.9705312158662167
36.339625 0.24916492085733033 -0.9708067441261731
36.4645 0.2463474510333591 -0.9727916611212902
36.589375 0.2425243391267578 -0.9727217982595515
36.71425 0.2388476752842157 -0.9738838014849704
36.839125 0.23601765936590713 -0.9748980530598144
36.964 0.23187240793332253 -0.975622189171998
37.088875 0.22997391025769387 -0.975862046994033
37.21375 0.22595841984687248 -0.9764506172651206
37.338625 0.222781702261798 -0.9772177098289604
37.4635 0.21978561610073677 -0.9775266756553065
37.588375 0.21628712593272648 -0.9793184389889802
37.71325 0.21398359766726455 -0.980137955728846
37.838125 0.21047339936873705 -0.9804178561215944
37.963 0.20711974129640992 -0.980701309887282
38.087875 0.20335718885051735 -0.981869433058485
38.21275 0.2010077197085927 -0.9827108261172481
38.337625 0.19831380339325605 -0.9830894789229787
38.4625 0.1949894455234103 -0.9835997308974329
38.587375 0.1925654456312742 -0.9840628275389449
38.71225 0.18880929741788638 -0.9842662623480808
38.837125 0.1849391248419145 -0.9852168547740059
38.962 0.1819289648408033 -0.9861866398948814
39.086875 0.17903407504243513 -0.9860511355644018
39.21175 0.17587342980455611 -0.9866278931089034
39.336625 0.1730476689816554 -0.9878343140621996
39.4615 0.16890770986559295 -0.9879721287783688
39.586375 0.16662267779994022 -0.9880334535769799
39.71125 0.16344347659578473 -0.9884648293361339
39.836125 0.16052619457843598 -0.989370210662176
39.961 0.1580571779944432 -0.9905397351467806
40.085875 0.15466291747424854 -0.9907835898514734
40.21075 0.15088308215673224 -0.9916217898088635
40.335625 0.14885000203118864 -0.9909789015979638
40.4605 0.14561352143149459 -0.9921976711874203
40.585375 0.14190523603689442 -0.9923467421942912
40.71025 0.14060561416025014 -0.9936050321707111
40.835125 0.13568813054904227 -0.9937840654166367
40.96 0.1333185610824284 -0.9944359525073879
41.084875 0.13020781417631017 -0.9943389261744442
41.20975 0.12756300073791876 -0.994108092295553
41.334625 0.12393962814958032 -0.995464762762224
41.4595 0.12147051900667072 -0.9949541468067731
41.584375 0.11839592634422802 -0.9951942148878783
41.70925 0.1160423352052749 -0.9957926368252112
41.834125 0.11248864945295994 -0.9962406618873976
41.959 0.11032007347132633 -0.9963098733298166
42.083875 0.10688511171083936 -0.997102740787692
42.20875 0.1037694585503442 -0.998134723324537
42.333625 0.10058476974609976 -0.9977357580640018
42.4585 0.09710164014301886 -0.997525638688707
42.583375 0.09514243098175196 -0.9978942811871698
42.70825 0.09181473014621411 -0.9975196403754534
42.833125 0.08923275364799094 -0.9984720106081488
42.958 0.08600389978013856 -0.999362258811211
43.082875 0.08353579686286616 -0.9985964434991916
43.20775 0.08028530543508144 -0.99972985625492
43.332625 0.07761984579662712 -0.999362439707252
43.4575 0.07418445838373022 -1.0001128880279226
43.582375 0.07117644503768916 -1.000006120147481
43.70725 0.06981235236631095 -1.000294028404389
43.832125 0.06592909254676654 -1.0003218572805355
43.957 0.06370238599617273 -1.0011183758576507
44.081875 0.06139970379923759 -1.0010317915822686
44.20675 0.05758629341617544 -1.0010301517639655
44.331625 0.0549561239124281 -1.0015422233569962
44.4565 0.052245783259524725 -1.0015586169587685
44.581375 0.04866574236220833 -1.0011304421135812
44.70625 0.046990242002250604 -1.0011151738430168
44.831125 0.042699914666085914 -1.0016581379205567
44.956 0.0419702947659516 -1.0015827267129869
45.080875 0.03849330135554724 -1.0019247599558778
45.20575 0.03551287436791928 -1.0015590781615342
45.330625 0.032820088240634926 -1.002336335441711
45.4555 0.029375874943311786 -1.0015838698852653
45.580375 0.027286878808852943 -1.0021526686145321
45.70525 0.02439184124895183 -1.0017958937778655
45.830125 0.02214977221529557 -1.0014641329934488
45.955 0.019265052986878917 -1.0018227941556543
46.079875 0.015916333736821664 -1.002075312789175
46.20475 0.013451919703491633 -1.0015191615657302
46.329625 0.01046299879261986 -1.0024290348734053
46.4545 0.00785416947817752 -1.0018555893811933
46.579375 0.0051290725818951 -1.0032220712548818
46.70425 0.0022281322479678067 -1.0025603372675629
46.829125 -0.0005501329640533736 -1.0023321412864028
46.954 -0.00317750747363571 -1.0017563145744117
47.078875 -0.00577363550925214 -1.002014129404169
47.20375 -0.007746504725163139 -1.0023607924008902
47.328625 -0.010373258651957096 -1.001257019119595
47.4535 -0.013241420716635588 -1.0019929156828675
47.578375 -0.015913022315249103 -1.0017291813901086
47.70325 -0.017734698652357717 -1.0019203765501603
47.828125 -0.020746456394930612 -1.0016189806957063
47.953 -0.02385146912698355 -1.0016598534746104
48.077875 -0.02606128291993992 -1.002023975660507
48.20275 -0.029113822083896623 -1.0015285356890622
48.327625 -0.031528793474932204 -1.0015322987979425
48.4525 -0.034135493694684216 -1.0020346598829508
48.577375 -0.0359458421404365 -1.0024425452014791
48.70225 -0.03998365171964058 -1.0009362144640261
48.827125 -0.041935901051614544 -1.0009358812265283
48.952 -0.044450431323849515 -1.0005298081860934
49.076875 -0.04655963219500964 -1.0016075961480773
49.20175 -0.04923772445192648 -1.0005706111743358
49.326625 -0.05156029560004405 -1.0009415365679701
49.4515 -0.054508585252894426 -0.9997903434195362
49.576375 -0.055697775767309 -1.0002373344507143
49.70125 -0.05967489784157454 -1.0001138401898675
49.826125 -0.06143375779780319 -1.0005006838697241
49.951 -0.06421898948652727 -0.9998844991202354
50.075875 -0.06698759953229627 -0.9987607377369365
50.20075 -0.06914462980809 -1.0002878299929336
50.325625 -0.07129393061682243 -0.9991790253759606
50.4505 -0.07400609145298281 -0.9993678311268646
50.575375 -0.07700472236040112 -0.9991690453372135
50.70025 -0.07883079983888969 -0.9994959125057793
50.825125 -0.08248701378548134 -0.9987227977785473
50.95 -0.0833150507551737 -0.9984409334902242
51.074875 -0.08660361983148762 -0.9984789207137367
51.19975 -0.08902968333233802 -0.9978284469940459
51.324625 -0.0918459892238273 -0.9975024863617343
51.4495 -0.0935791947941172 -0.997781583648846
51.574375 -0.09679160543506649 -0.9972288395068374
51.69925 -0.09860782118884365 -0.997310014232407
51.824125 -0.10044475395616609 -0.9974569905532662
51.949 -0.10372255406735403 -0.9963423533446388
52.073875 -0.10566148755530774 -0.9963692719141288
52.19875 -0.10824231655396888 -0.9960544263579925
