! ListType=Lin
# MHz S RI R 50
  1.0000000   0.9996628  -0.0440045 
  1.1248750   0.9991968  -0.0490263 
  1.2497500   0.9989098  -0.0547373 
  1.3746250   0.9980460  -0.0599132 
  1.4995000   0.9978885  -0.0657386 
  1.6243750   0.9971518  -0.0699609 
  1.7492500   0.9970588  -0.0756591 
  1.8741250   0.9965764  -0.0816448 
  1.9990000   0.9969544  -0.0874724 
  2.1238750   0.9955011  -0.0923673 
  2.2487500   0.9955473  -0.0978705 
  2.3736250   0.9942834  -0.1032506 
  2.4985000   0.9946520  -0.1088357 
  2.6233750   0.9938821  -0.1141541 
  2.7482500   0.9926335  -0.1196743 
  2.8731250   0.9922553  -0.1241601 
  2.9980000   0.9919834  -0.1299729 
  3.1228750   0.9906528  -0.1353139 
  3.2477500   0.9902139  -0.1406591 
  3.3726250   0.9891394  -0.1457870 
  3.4975000   0.9887188  -0.1515790 
  3.6223750   0.9875732  -0.1569069 
  3.7472500   0.9874022  -0.1625332 
  3.8721250   0.9860013  -0.1675709 
  3.9970000   0.9849558  -0.1731102 
  4.1218750   0.9835049  -0.1778953 
  4.2467500   0.9832218  -0.1833585 
  4.3716250   0.9820801  -0.1890713 
  4.4965000   0.9809791  -0.1940229 
  4.6213750   0.9797238  -0.1995725 
  4.7462500   0.9791008  -0.2045952 
  4.8711250   0.9775812  -0.2096656 
  4.9960000   0.9766062  -0.2155747 
  5.1208750   0.9755909  -0.2200166 
  5.2457500   0.9742684  -0.2253853 
  5.3706250   0.9735074  -0.2305588 
  5.4955000   0.9709359  -0.2359614 
  5.6203750   0.9704595  -0.2418420 
  5.7452500   0.9695756  -0.2465822 
  5.8701250   0.9674868  -0.2514980 
  5.9950000   0.9665696  -0.2567174 
  6.1198750   0.9650492  -0.2621334 
  6.2447500   0.9641861  -0.2670109 
  6.3696250   0.9624684  -0.2717575 
  6.4945000   0.9605815  -0.2776130 
  6.6193750   0.9590223  -0.2824028 
  6.7442500   0.9572353  -0.2872156 
  6.8691250   0.9563245  -0.2930683 
  6.9940000   0.9543747  -0.2974589 
  7.1188750   0.9534195  -0.3025455 
  7.2437500   0.9512274  -0.3074563 
  7.3686250   0.9497061  -0.3127002 
  7.4935000   0.9479223  -0.3177149 
  7.6183750   0.9457433  -0.3228392 
  7.7432500   0.9446304  -0.3281527 
  7.8681250   0.9424685  -0.3334885 
  7.9930000   0.9404873  -0.3380141 
  8.1178750   0.9393375  -0.3429003 
  8.2427500   0.9369506  -0.3478649 
  8.3676250   0.9357463  -0.3527725 
  8.4925000   0.9343358  -0.3579538 
  8.6173750   0.9313912  -0.3625036 
  8.7422500   0.9298018  -0.3668890 
  8.8671250   0.9279614  -0.3728374 
  8.9920000   0.9256246  -0.3772078 
  9.1168750   0.9239407  -0.3825873 
  9.2417500   0.9217734  -0.3873489 
  9.3666250   0.9198488  -0.3922769 
  9.4915000   0.9176078  -0.3968699 
  9.6163750   0.9162479  -0.4013603 
  9.7412500   0.9139348  -0.4061509 
  9.8661250   0.9112454  -0.4112884 
  9.9910000   0.9100309  -0.4162561 
 10.1158750   0.9073836  -0.4214188 
 10.2407500   0.9051948  -0.4249381 
 10.3656250   0.9028577  -0.4295815 
 10.4905000   0.9000701  -0.4344185 
 10.6153750   0.8983924  -0.4399553 
 10.7402500   0.8961151  -0.4430790 
 10.8651250   0.8937089  -0.4483062 
 10.9900000   0.8904643  -0.4535337 
 11.1148750   0.8887515  -0.4575406 
 11.2397500   0.8868896  -0.4619853 
 11.3646250   0.8843520  -0.4665814 
 11.4895000   0.8817732  -0.4708550 
 11.6143750   0.8789713  -0.4754343 
 11.7392500   0.8764042  -0.4809096 
 11.8641250   0.8742901  -0.4849883 
 11.9890000   0.8715606  -0.4890858 
 12.1138750   0.8692813  -0.4928174 
 12.2387500   0.8669356  -0.4984176 
 12.3636250   0.8640905  -0.5024177 
 12.4885000   0.8614782  -0.5070125 
 12.6133750   0.8591274  -0.5111176 
 12.7382500   0.8564670  -0.5158834 
 12.8631250   0.8536789  -0.5205578 
 12.9880000   0.8507747  -0.5247059 
 13.1128750   0.8480364  -0.5279468 
 13.2377500   0.8459418  -0.5331049 
 13.3626250   0.8431689  -0.5373544 
 13.4875000   0.8403312  -0.5414876 
 13.6123750   0.8366759  -0.5456156 
 13.7372500   0.8349243  -0.5499475 
 13.8621250   0.8321550  -0.5541395 
 13.9870000   0.8286541  -0.5582152 
 14.1118750   0.8262176  -0.5617467 
 14.2367500   0.8238992  -0.5661213 
 14.3616250   0.8215093  -0.5701424 
 14.4865000   0.8178493  -0.5745776 
 14.6113750   0.8149822  -0.5787272 
 14.7362500   0.8119083  -0.5823865 
 14.8611250   0.8097519  -0.5870144 
 14.9860000   0.8063735  -0.5907218 
 15.1108750   0.8032318  -0.5948456 
 15.2357500   0.8015610  -0.5984916 
 15.3606250   0.7975425  -0.6023735 
 15.4855000   0.7941657  -0.6061900 
 15.6103750   0.7916909  -0.6104905 
 15.7352500   0.7881974  -0.6145520 
 15.8601250   0.7857319  -0.6185844 
 15.9850000   0.7825820  -0.6223833 
 16.1098750   0.7792427  -0.6263620 
 16.2347500   0.7765286  -0.6299047 
 16.3596250   0.7731703  -0.6334470 
 16.4845000   0.7702273  -0.6370490 
 16.6093750   0.7671727  -0.6400845 
 16.7342500   0.7641048  -0.6442187 
 16.8591250   0.7610210  -0.6485245 
 16.9840000   0.7573722  -0.6515068 
 17.1088750   0.7549558  -0.6554953 
 17.2337500   0.7514575  -0.6592797 
 17.3586250   0.7484511  -0.6627619 
 17.4835000   0.7451768  -0.6663612 
 17.6083750   0.7411328  -0.6693687 
 17.7332500   0.7387990  -0.6725778 
 17.8581250   0.7354010  -0.6773393 
 17.9830000   0.7325649  -0.6800052 
 18.1078750   0.7290318  -0.6839535 
 18.2327500   0.7259644  -0.6872709 
 18.3576250   0.7225569  -0.6911694 
 18.4825000   0.7197653  -0.6929564 
 18.6073750   0.7162483  -0.6972791 
 18.7322500   0.7124926  -0.7010916 
 18.8571250   0.7094553  -0.7045839 
 18.9820000   0.7061023  -0.7067979 
 19.1068750   0.7023846  -0.7105134 
 19.2317500   0.6986671  -0.7138021 
 19.3566250   0.6954036  -0.7170977 
 19.4815000   0.6924236  -0.7209034 
 19.6063750   0.6883839  -0.7244794 
 19.7312500   0.6861502  -0.7274812 
 19.8561250   0.6823354  -0.7298119 
 19.9810000   0.6794268  -0.7327173 
 20.1058750   0.6751707  -0.7362407 
 20.2307500   0.6721355  -0.7396530 
 20.3556250   0.6693753  -0.7418699 
 20.4805000   0.6653812  -0.7452525 
 20.6053750   0.6623645  -0.7484060 
 20.7302500   0.6585606  -0.7512922 
 20.8551250   0.6554243  -0.7547105 
 20.9800000   0.6516861  -0.7579882 
 21.1048750   0.6479339  -0.7609136 
 21.2297500   0.6439740  -0.7631978 
 21.3546250   0.6414963  -0.7667171 
 21.4795000   0.6374482  -0.7693214 
 21.6043750   0.6342049  -0.7723781 
 21.7292500   0.6307976  -0.7745735 
 21.8541250   0.6271267  -0.7776369 
 21.9790000   0.6230420  -0.7809998 
 22.1038750   0.6207116  -0.7838268 
 22.2287500   0.6166080  -0.7862135 
 22.3536250   0.6133485  -0.7892464 
 22.4785000   0.6090771  -0.7914974 
 22.6033750   0.6065607  -0.7946441 
 22.7282500   0.6028803  -0.7972750 
 22.8531250   0.5995379  -0.7997182 
 22.9780000   0.5955426  -0.8017936 
 23.1028750   0.5919704  -0.8046262 
 23.2277500   0.5885116  -0.8070703 
 23.3526250   0.5857859  -0.8099809 
 23.4775000   0.5806864  -0.8127881 
 23.6023750   0.5780862  -0.8150139 
 23.7272500   0.5738740  -0.8179816 
 23.8521250   0.5703309  -0.8204657 
 23.9770000   0.5675730  -0.8228602 
 24.1018750   0.5631215  -0.8258470 
 24.2267500   0.5593474  -0.8280306 
 24.3516250   0.5563010  -0.8300890 
 24.4765000   0.5521058  -0.8328067 
 24.6013750   0.5488333  -0.8352450 
 24.7262500   0.5452746  -0.8377573 
 24.8511250   0.5419349  -0.8399205 
 24.9760000   0.5385886  -0.8418011 
 25.1008750   0.5347388  -0.8441995 
 25.2257500   0.5314645  -0.8460338 
 25.3506250   0.5276213  -0.8481505 
 25.4755000   0.5241435  -0.8513708 
 25.6003750   0.5203116  -0.8529814 
 25.7252500   0.5158418  -0.8553010 
 25.8501250   0.5130547  -0.8571011 
 25.9750000   0.5085468  -0.8592214 
 26.0998750   0.5056930  -0.8614085 
 26.2247500   0.5023106  -0.8642905 
 26.3496250   0.4989541  -0.8664911 
 26.4745000   0.4943226  -0.8674432 
 26.5993750   0.4912948  -0.8699649 
 26.7242500   0.4877158  -0.8726474 
 26.8491250   0.4836251  -0.8739816 
 26.9740000   0.4806220  -0.8758193 
 27.0988750   0.4763515  -0.8782159 
 27.2237500   0.4732382  -0.8796887 
 27.3486250   0.4695632  -0.8821793 
 27.4735000   0.4659996  -0.8837549 
 27.5983750   0.4627041  -0.8854908 
 27.7232500   0.4582207  -0.8869327 
 27.8481250   0.4550472  -0.8892441 
 27.9730000   0.4511056  -0.8919967 
 28.0978750   0.4476454  -0.8931111 
 28.2227500   0.4439703  -0.8944658 
 28.3476250   0.4409519  -0.8966488 
 28.4725000   0.4374936  -0.8982553 
 28.5973750   0.4337152  -0.9002830 
 28.7222500   0.4300603  -0.9018535 
 28.8471250   0.4262053  -0.9040072 
 28.9720000   0.4225856  -0.9053552 
 29.0968750   0.4189910  -0.9072912 
 29.2217500   0.4149151  -0.9089906 
 29.3466250   0.4129091  -0.9105742 
 29.4715000   0.4080587  -0.9114174 
 29.5963750   0.4050065  -0.9135795 
 29.7212500   0.4009255  -0.9148325 
 29.8461250   0.3973124  -0.9163268 
 29.9710000   0.3941114  -0.9173736 
 30.0958750   0.3901328  -0.9199364 
 30.2207500   0.3862224  -0.9210800 
 30.3456250   0.3827767  -0.9230616 
 30.4705000   0.3790819  -0.9245563 
 30.5953750   0.3756960  -0.9247333 
 30.7202500   0.3728729  -0.9271650 
 30.8451250   0.3686199  -0.9286797 
 30.9700000   0.3648912  -0.9297394 
 31.0948750   0.3613801  -0.9315330 
 31.2197500   0.3585104  -0.9322288 
 31.3446250   0.3556375  -0.9341175 
 31.4695000   0.3506355  -0.9355280 
 31.5943750   0.3478346  -0.9362976 
 31.7192500   0.3433969  -0.9379107 
 31.8441250   0.3401964  -0.9392700 
 31.9690000   0.3368882  -0.9406052 
 32.0938750   0.3331008  -0.9424114 
 32.2187500   0.3291284  -0.9432087 
 32.3436250   0.3263674  -0.9444362 
 32.4685000   0.3225819  -0.9451705 
 32.5933750   0.3196638  -0.9463804 
 32.7182500   0.3154807  -0.9480742 
 32.8431250   0.3124278  -0.9480868 
 32.9680000   0.3083581  -0.9502354 
 33.0928750   0.3052053  -0.9517754 
 33.2177500   0.3009831  -0.9521438 
 33.3426250   0.2976572  -0.9533802 
 33.4675000   0.2944051  -0.9541135 
 33.5923750   0.2913163  -0.9564552 
 33.7172500   0.2871552  -0.9578425 
 33.8421250   0.2844097  -0.9575268 
 33.9670000   0.2807016  -0.9581512 
 34.0918750   0.2771042  -0.9593172 
 34.2167500   0.2732097  -0.9608424 
 34.3416250   0.2703204  -0.9624520 
 34.4665000   0.2666260  -0.9620431 
 34.5913750   0.2627288  -0.9632456 
 34.7162500   0.2599101  -0.9649180 
 34.8411250   0.2555972  -0.9653705 
 34.9660000   0.2528994  -0.9660497 
 35.0908750   0.2492725  -0.9671378 
 35.2157500   0.2453139  -0.9682653 
 35.3406250   0.2420608  -0.9688926 
 35.4655000   0.2386367  -0.9696445 
 35.5903750   0.2364733  -0.9701216 
 35.7152500   0.2314469  -0.9717082 
 35.8401250   0.2286314  -0.9723792 
 35.9650000   0.2260136  -0.9726908 
 36.0898750   0.2227755  -0.9733331 
 36.2147500   0.2180167  -0.9742976 
 36.3396250   0.2153670  -0.9743772 
 36.4645000   0.2125888  -0.9767161 
 36.5893750   0.2081518  -0.9764290 
 36.7142500   0.2044739  -0.9776913 
 36.8391250   0.2017576  -0.9783376 
 36.9640000   0.1975862  -0.9789870 
 37.0888750   0.1953590  -0.9791767 
 37.2137500   0.1912398  -0.9801800 
 37.3386250   0.1882683  -0.9807128 
 37.4635000   0.1849859  -0.9807346 
 37.5883750   0.1810659  -0.9820681 
 37.7132500   0.1785636  -0.9830658 
 37.8381250   0.1753934  -0.9834716 
 37.9630000   0.1716244  -0.9838003 
 38.0878750   0.1677690  -0.9850904 
 38.2127500   0.1651803  -0.9853872 
 38.3376250   0.1623230  -0.9854826 
 38.4625000   0.1586043  -0.9858674 
 38.5873750   0.1558639  -0.9864963 
 38.7122500   0.1525371  -0.9867656 
 38.8371250   0.1483826  -0.9875068 
 38.9620000   0.1453119  -0.9879698 
 39.0868750   0.1424959  -0.9881809 
 39.2117500   0.1388636  -0.9886250 
 39.3366250   0.1356722  -0.9894904 
 39.4615000   0.1313721  -0.9897602 
 39.5863750   0.1292860  -0.9895785 
 39.7112500   0.1258689  -0.9901222 
 39.8361250   0.1227069  -0.9909261 
 39.9610000   0.1204018  -0.9916901 
 40.0858750   0.1165506  -0.9919271 
 40.2107500   0.1127598  -0.9929354 
 40.3356250   0.1104126  -0.9922438 
 40.4605000   0.1070925  -0.9930984 
 40.5853750   0.1034090  -0.9930061 
 40.7102500   0.1018763  -0.9943011 
 40.8351250   0.0969878  -0.9943895 
 40.9600000   0.0945614  -0.9945718 
 41.0848750   0.0909374  -0.9947382 
 41.2097500   0.0883559  -0.9947688 
 41.3346250   0.0844808  -0.9955842 
 41.4595000   0.0820215  -0.9949630 
 41.5843750   0.0786506  -0.9956671 
 41.7092500   0.0761518  -0.9957113 
 41.8341250   0.0722916  -0.9961180 
 41.9590000   0.0697779  -0.9960370 
 42.0838750   0.0665014  -0.9967392 
 42.2087500   0.0633972  -0.9976806 
 42.3336250   0.0603754  -0.9971069 
 42.4585000   0.0565339  -0.9969983 
 42.5833750   0.0545083  -0.9970968 
 42.7082500   0.0506135  -0.9967239 
 42.8331250   0.0480661  -0.9972476 
 42.9580000   0.0447205  -0.9979241 
 43.0828750   0.0422455  -0.9971684 
 43.2077500   0.0388797  -0.9980399 
 43.3326250   0.0359995  -0.9977833 
 43.4575000   0.0324426  -0.9985242 
 43.5823750   0.0294153  -0.9978965 
 43.7072500   0.0275054  -0.9984783 
 43.8321250   0.0235867  -0.9982653 
 43.9570000   0.0213385  -0.9990946 
 44.0818750   0.0188483  -0.9989243 
 44.2067500   0.0151347  -0.9985603 
 44.3316250   0.0121606  -0.9989606 
 44.4565000   0.0093302  -0.9988768 
 44.5813750   0.0054465  -0.9985708 
 44.7062500   0.0035909  -0.9982089 
 44.8311250  -0.0007015  -0.9984634 
 44.9560000  -0.0015737  -0.9988155 
 45.0808750  -0.0050023  -0.9986912 
 45.2057500  -0.0081571  -0.9982256 
 45.3306250  -0.0110016  -0.9988061 
 45.4555000  -0.0145975  -0.9976665 
 45.5803750  -0.0172218  -0.9984305 
 45.7052500  -0.0199537  -0.9979026 
 45.8301250  -0.0222022  -0.9977656 
 45.9550000  -0.0254269  -0.9979080 
 46.0798750  -0.0287309  -0.9977701 
 46.2047500  -0.0312854  -0.9974601 
 46.3296250  -0.0339615  -0.9980346 
 46.4545000  -0.0370861  -0.9976050 
 46.5793750  -0.0399659  -0.9986761 
 46.7042500  -0.0430610  -0.9977045 
 46.8291250  -0.0457534  -0.9973943 
 46.9540000  -0.0487076  -0.9965711 
 47.0788750  -0.0514748  -0.9969375 
 47.2037500  -0.0533854  -0.9974126 
 47.3286250  -0.0563357  -0.9959647 
 47.4535000  -0.0595124  -0.9964962 
 47.5783750  -0.0617661  -0.9961247 
 47.7032500  -0.0639266  -0.9962607 
 47.8281250  -0.0670730  -0.9960713 
 47.9530000  -0.0703145  -0.9953277 
 48.0778750  -0.0725247  -0.9960118 
 48.2027500  -0.0758960  -0.9953487 
 48.3276250  -0.0782732  -0.9954143 
 48.4525000  -0.0810992  -0.9952505 
 48.5773750  -0.0830716  -0.9954435 
 48.7022500  -0.0871091  -0.9946840 
 48.8271250  -0.0893918  -0.9941734 
 48.9520000  -0.0919280  -0.9934789 
 49.0768750  -0.0942911  -0.9945961 
 49.2017500  -0.0967683  -0.9935280 
 49.3266250  -0.0994645  -0.9936946 
 49.4515000  -0.1024553  -0.9923930 
 49.5763750  -0.1040718  -0.9927623 
 49.7012500  -0.1081279  -0.9927706 
 49.8261250  -0.1096181  -0.9928376 
 49.9510000  -0.1125832  -0.9920103 
 50.0758750  -0.1159954  -0.9909756 
 50.2007500  -0.1179425  -0.9916418 
 50.3256250  -0.1202293  -0.9908444 
 50.4505000  -0.1230330  -0.9906233 
 50.5753750  -0.1259946  -0.9902822 
 50.7002500  -0.1285095  -0.9908468 
 50.8251250  -0.1316459  -0.9898984 
 50.9500000  -0.1322956  -0.9893998 
 51.0748750  -0.1360872  -0.9894249 
 51.1997500  -0.1388781  -0.9888213 
 51.3246250  -0.1417274  -0.9881940 
 51.4495000  -0.1438251  -0.9881641 
 51.5743750  -0.1467282  -0.9879904 
 51.6992500  -0.1489928  -0.9871853 
 51.8241250  -0.1510049  -0.9875723 
 51.9490000  -0.1542614  -0.9860657 
 52.0738750  -0.1563796  -0.9863640 
 52.1987500  -0.1589962  -0.9853735 
 52.3236250  -0.1605390  -0.9845275 
 52.4485000  -0.1648927  -0.9848141 
 52.5733750  -0.1661271  -0.9847081 
 52.6982500  -0.1686753  -0.9837203 
 52.8231250  -0.1712071  -0.9834533 
 52.9480000  -0.1746754  -0.9841445 
 53.0728750  -0.1752386  -0.9830415 
 53.1977500  -0.1784603  -0.9825634 
 53.3226250  -0.1807706  -0.9817377 
 53.4475000  -0.1835109  -0.9809217 
 53.5723750  -0.1861092  -0.9810416 
 53.6972500  -0.1883326  -0.9811256 
 53.8221250  -0.1907128  -0.9801125 
 53.9470000  -0.1927335  -0.9794260 
 54.0718750  -0.1954601  -0.9784163 
 54.1967500  -0.1981229  -0.9788641 
 54.3216250  -0.2007198  -0.9775371 
 54.4465000  -0.2031011  -0.9772949 
 54.5713750  -0.2046360  -0.9762154 
 54.6962500  -0.2075201  -0.9756950 
 54.8211250  -0.2095274  -0.9761309 
 54.9460000  -0.2131193  -0.9758364 
 55.0708750  -0.2144383  -0.9751804 
 55.1957500  -0.2167208  -0.9739670 
 55.3206250  -0.2191807  -0.9733962 
 55.4455000  -0.2213998  -0.9739539 
 55.5703750  -0.2238067  -0.9735175 
 55.6952500  -0.2253585  -0.9724586 
 55.8201250  -0.2288560  -0.9710944 
 55.9450000  -0.2306789  -0.9714867 
 56.0698750  -0.2326737  -0.9707351 
 56.1947500  -0.2355514  -0.9704563 
 56.3196250  -0.2371375  -0.9697849 
 56.4445000  -0.2398386  -0.9684914 
 56.5693750  -0.2421096  -0.9688318 
 56.6942500  -0.2445787  -0.9683398 
 56.8191250  -0.2461403  -0.9675269 
 56.9440000  -0.2489251  -0.9668366 
 57.0688750  -0.2513350  -0.9665154 
 57.1937500  -0.2530301  -0.9655545 
 57.3186250  -0.2551477  -0.9650886 
 57.4435000  -0.2574063  -0.9642055 
 57.5683750  -0.2595133  -0.9640453 
 57.6932500  -0.2610057  -0.9627609 
 57.8181250  -0.2646422  -0.9631558 
 57.9430000  -0.2661756  -0.9619564 
 58.0678750  -0.2677353  -0.9609259 
 58.1927500  -0.2698513  -0.9601509 
 58.3176250  -0.2726255  -0.9605601 
 58.4425000  -0.2751106  -0.9593907 
 58.5673750  -0.2764084  -0.9584111 
 58.6922500  -0.2796708  -0.9583497 
 58.8171250  -0.2815267  -0.9574446 
 58.9420000  -0.2839057  -0.9568229 
 59.0668750  -0.2850869  -0.9561671 
 59.1917500  -0.2871867  -0.9565072 
 59.3166250  -0.2895035  -0.9557796 
 59.4415000  -0.2919149  -0.9537422 
 59.5663750  -0.2943365  -0.9532173 
 59.6912500  -0.2959109  -0.9541140 
 59.8161250  -0.2980916  -0.9532608 
 59.9410000  -0.3001214  -0.9520305 
 60.0658750  -0.3011216  -0.9513251 
 60.1907500  -0.3047002  -0.9509885 
 60.3156250  -0.3060252  -0.9498072 
 60.4405000  -0.3084006  -0.9496914 
 60.5653750  -0.3105186  -0.9480458 
 60.6902500  -0.3125890  -0.9475624 
 60.8151250  -0.3149891  -0.9484363 
 60.9400000  -0.3161981  -0.9473031 
 61.0648750  -0.3181337  -0.9450874 
 61.1897500  -0.3204202  -0.9443354 
 61.3146250  -0.3223629  -0.9444215 
 61.4395000  -0.3240380  -0.9438509 
 61.5643750  -0.3265909  -0.9431350 
 61.6892500  -0.3282051  -0.9428657 
 61.8141250  -0.3310671  -0.9414492 
 61.9390000  -0.3332986  -0.9410189 
 62.0638750  -0.3344645  -0.9402269 
 62.1887500  -0.3356372  -0.9388131 
 62.3136250  -0.3379299  -0.9386410 
 62.4385000  -0.3397138  -0.9381658 
 62.5633750  -0.3419687  -0.9372331 
 62.6882500  -0.3439269  -0.9365859 
 62.8131250  -0.3466462  -0.9369585 
 62.9380000  -0.3475898  -0.9351561 
 63.0628750  -0.3491474  -0.9354120 
 63.1877500  -0.3513863  -0.9336628 
 63.3126250  -0.3532877  -0.9332012 
 63.4375000  -0.3555032  -0.9330979 
 63.5623750  -0.3569611  -0.9316798 
 63.6872500  -0.3590867  -0.9310532 
 63.8121250  -0.3604429  -0.9307985 
 63.9370000  -0.3635067  -0.9290387 
 64.0618750  -0.3649751  -0.9289783 
 64.1867500  -0.3669724  -0.9275001 
 64.3116250  -0.3684670  -0.9279158 
 64.4365000  -0.3696330  -0.9265457 
 64.5613750  -0.3725222  -0.9259215 
 64.6862500  -0.3744134  -0.9253832 
 64.8111250  -0.3757655  -0.9243546 
 64.9360000  -0.3769976  -0.9240158 
 65.0608750  -0.3800687  -0.9226140 
 65.1857500  -0.3815032  -0.9224521 
 65.3106250  -0.3840793  -0.9221794 
 65.4355000  -0.3856282  -0.9208436 
 65.5603750  -0.3867436  -0.9206127 
 65.6852500  -0.3886605  -0.9200660 
 65.8101250  -0.3907244  -0.9179170 
 65.9350000  -0.3919867  -0.9172135 
 66.0598750  -0.3947795  -0.9158287 
 66.1847500  -0.3961572  -0.9160487 
 66.3096250  -0.3974879  -0.9155994 
 66.4345000  -0.3990603  -0.9145672 
