! ListType=Lin
!
!Created with skrf (http://scikit-rf.org).
# MHz S RI R 50.0 
!freq ReS11 ImS11
1.0 0.999323811488858 -0.04268243333243385
1.124875 0.9989949696735595 -0.04805460082666424
1.24975 0.9987815150683662 -0.05337722260879591
1.374625 0.9983540217468964 -0.05845420820708096
1.4995 0.9980022089969425 -0.06407833490875091
1.624375 0.9975925227287894 -0.06882418246842745
1.74925 0.9972238910781855 -0.07435682972493242
1.874125 0.9966738953056428 -0.08021050972489496
1.999 0.9970721039396875 -0.08555813474324309
2.123875 0.9959212709591908 -0.08982240515533609
2.24875 0.9952092470817769 -0.0959968254647253
2.373625 0.9947997899421372 -0.10118532510331738
2.4985 0.9944353761672461 -0.10690069875039405
2.623375 0.9941059531037897 -0.11193561053329446
2.74825 0.9931102303692709 -0.11685545982782394
2.873125 0.99268568870234 -0.12222517353103633
2.998 0.9930612500843161 -0.12776353459171136
3.122875 0.9911984305707942 -0.13261838630803713
3.24775 0.9905254731202956 -0.13785065943194097
3.372625 0.9896246778295147 -0.14306031140264702
3.4975 0.9891949817023918 -0.1486098175104106
3.622375 0.9878732839705079 -0.1535895691639535
3.74725 0.987872471745307 -0.15908294852219695
3.872125 0.9868207665655325 -0.1645227093614721
3.997 0.9856339349904109 -0.1697761708767265
4.121875 0.9845838300734832 -0.17441383006285083
4.24675 0.9844377403061498 -0.18004981923655788
4.371625 0.9832596340406788 -0.1854815736561466
4.4965 0.9818040285049894 -0.19021789155428231
4.621375 0.981166343876285 -0.195686904456639
4.74625 0.9798673645340502 -0.20048720633290407
4.871125 0.9784346964428514 -0.20593876696142505
4.996 0.9777447538372624 -0.21133923445441383
5.120875 0.9768724701452962 -0.2165718500564992
5.24575 0.975284418692157 -0.22109819098369474
5.370625 0.9744775033088338 -0.22646690377218193
5.4955 0.9721809468421482 -0.23173571541924404
5.620375 0.9720547353272763 -0.23721765871597153
5.74525 0.9709985873264888 -0.2422103447223793
5.870125 0.968451629404601 -0.24675033070349267
5.995 0.9685098103025613 -0.25213388726250124
6.119875 0.9665093913631579 -0.25734293517719065
6.24475 0.9651536931775484 -0.26224149769419836
6.369625 0.963951185473195 -0.2670550385435578
6.4945 0.9628118469060686 -0.27233338254662465
6.619375 0.9611716525826592 -0.27716808541351146
6.74425 0.9593361723733989 -0.28234362964085286
6.869125 0.9584652667644586 -0.28785123307050553
6.994 0.9563027942940816 -0.2922653633897909
7.118875 0.9554845737937757 -0.2972329281648628
7.24375 0.953431450103446 -0.30248069597475125
7.368625 0.9518519418731319 -0.307187544913977
7.4935 0.9502166756650344 -0.3123680948216743
7.618375 0.948479782601316 -0.3176361658798166
7.74325 0.9469803630981867 -0.32180149413225656
7.868125 0.9449710503061084 -0.32761481696946504
7.993 0.9432094355536328 -0.3319029792608964
8.117875 0.9424372475804399 -0.33726265669367633
8.24275 0.9403127860454008 -0.34187307177207704
8.367625 0.9380782730016235 -0.34668167871771616
8.4925 0.9372847582973358 -0.35177349930353147
8.617375 0.9350052383266451 -0.3568631459963624
8.74225 0.9329557989815287 -0.3609971938541531
8.867125 0.9307412312594737 -0.3664679090255339
8.992 0.9291772361082621 -0.3710705345960673
9.116875 0.927396865502125 -0.37580263585737594
9.24175 0.9251873709575321 -0.38054531521980905
9.366625 0.9236775581402104 -0.3854664536044203
9.4915 0.9213354512201293 -0.39018089970941483
9.616375 0.9193776401140852 -0.3947265538153159
9.74125 0.9171588384895522 -0.3993944303801243
9.866125 0.9148886633604016 -0.40452053230596663
9.991 0.9138681502541383 -0.40913130574937395
10.115875 0.9113662416175532 -0.41441195544932974
10.24075 0.9089010198252157 -0.418181813792295
10.365625 0.9070120891044205 -0.4229945613471159
10.4905 0.9044591565661447 -0.4275843347082645
10.615375 0.9027263918419386 -0.4325675040190279
10.74025 0.9008547568720614 -0.43650932801655895
10.865125 0.8984102557226348 -0.4413911064940432
10.99 0.8953474728129259 -0.4464188510421475
11.114875 0.8933676022978796 -0.4497964259347655
11.23975 0.8918460991592043 -0.45473252932556335
11.364625 0.889304874803084 -0.4592009140001784
11.4895 0.8869181341655227 -0.4639409727744028
11.614375 0.8841666416434365 -0.4682261390932517
11.73925 0.8816699180218001 -0.4734113325550605
11.864125 0.8794650838255836 -0.4779467042722436
11.989 0.877070749695897 -0.4816921632703122
12.113875 0.8748721584424339 -0.48513512250183477
12.23875 0.8725574263788468 -0.4908514161891588
12.363625 0.8698071018598702 -0.49450508408205485
12.4885 0.8666576497812877 -0.499846451498171
12.613375 0.8648286889640904 -0.5035892792700873
12.73825 0.8623464060003511 -0.5083538274665029
12.863125 0.8600259166731099 -0.5129867969424198
12.988 0.8568331509221936 -0.5168081465988426
13.112875 0.8548473398813087 -0.5208514317606912
13.23775 0.8522953608503598 -0.5254067649631833
13.362625 0.8496395011021203 -0.5296351916117772
13.4875 0.8465652138307429 -0.534170412476725
13.612375 0.8430693156722374 -0.5371057472117107
13.73725 0.841875154399858 -0.5424854390928022
13.862125 0.8393071211164155 -0.545723731614177
13.987 0.8353792736900356 -0.5502028506189321
14.111875 0.8332084993330353 -0.5535345770826808
14.23675 0.8311564480649085 -0.558445997457184
14.361625 0.8286567895351088 -0.5627281180386631
14.4865 0.8249143002600776 -0.5669771849399206
14.611375 0.8218160297625776 -0.570682987452775
14.73625 0.8194256976432546 -0.5742733213420479
14.861125 0.8169524947217652 -0.5789030161668919
14.986 0.8138219045108628 -0.5825997640801082
15.110875 0.8107939730176407 -0.5866474515985864
15.23575 0.8090906933523844 -0.5905502155400033
15.360625 0.8051322809471698 -0.5942768688898614
15.4855 0.8027692884309161 -0.5976230572655745
15.610375 0.7997347805587371 -0.6023998629678219
15.73525 0.797205361891353 -0.6062661979372811
15.860125 0.7936993231960472 -0.6099629943827443
15.985 0.7909455771218524 -0.6137678487395565
16.109875 0.787932167269781 -0.6181865259786394
16.23475 0.7851229264466864 -0.6216240103192113
16.359625 0.7821037970468939 -0.6253593411352975
16.4845 0.7786616031320109 -0.628771044676959
16.609375 0.7763425599282228 -0.6323038407642991
16.73425 0.772975184890382 -0.6365276266195155
16.859125 0.7697628644656248 -0.6402297048487096
16.984 0.7668592770103502 -0.6436082396403227
17.108875 0.7640172974778594 -0.6472776749744309
17.23375 0.7608463368537028 -0.6509764036732535
17.358625 0.7577030279400581 -0.6546314980868089
17.4835 0.7544052666597201 -0.6580130523529867
17.608375 0.7506645824691225 -0.6614861597057269
17.73325 0.7481741416257284 -0.6645510088323594
17.858125 0.7454440216986508 -0.6697330532370726
17.983 0.7422267720420239 -0.6722532409254585
18.107875 0.7389487411932822 -0.6758693212026227
18.23275 0.7357388411861485 -0.6791328039218744
18.357625 0.7328732222966436 -0.6831808034249769
18.4825 0.7299587695692709 -0.6855769420083637
18.607375 0.7267352120589419 -0.68960973743239
18.73225 0.7228036618841067 -0.6934457111847688
18.857125 0.7197509270308284 -0.6968054804461186
18.982 0.716208389711607 -0.6991246085566454
19.106875 0.7128299403010322 -0.7028043534540246
19.23175 0.7097206248136946 -0.7063193332076934
19.356625 0.7065504758319289 -0.7098210925521693
19.4815 0.7032945429660417 -0.7131785740757589
19.606375 0.6993692304807878 -0.7165405338833926
19.73125 0.6974365532267903 -0.7197686648377963
19.856125 0.6936245598353453 -0.7219354373324558
19.981 0.6905641848970232 -0.7256410398476064
20.105875 0.6870828389276433 -0.7288158915553363
20.23075 0.6835323980488531 -0.7320352917754469
20.355625 0.6808184531717532 -0.734384526666402
20.4805 0.6770501120356217 -0.7378572606465439
20.605375 0.6741823478612516 -0.741352554995704
20.73025 0.6703188624069965 -0.7439481235111672
20.855125 0.6675391666378122 -0.7473676335167625
20.98 0.6636083860409852 -0.7504861254911384
21.104875 0.6599932270323097 -0.7538875879796152
21.22975 0.6565711734940489 -0.7559851698905522
21.354625 0.6536430408232609 -0.7595449688609107
21.4795 0.65008991887223 -0.7618667173671815
21.604375 0.6469565321014383 -0.7653660339914768
21.72925 0.6434476138701943 -0.7677207153215766
21.854125 0.6399895654936272 -0.7705717858739916
21.979 0.6358891168518146 -0.7737364494380452
22.103875 0.6331529705594399 -0.7768267843686578
22.22875 0.629733377786709 -0.7792255778958916
22.353625 0.6262404923914013 -0.7822210179338989
22.4785 0.6220287147014556 -0.7844864062003265
22.603375 0.6193468488876189 -0.7874500835124585
22.72825 0.6161369064724991 -0.7906458993949651
22.853125 0.6123250757730471 -0.7930516451856933
22.978 0.6085172214936976 -0.7951095393723699
23.102875 0.6052509764151812 -0.7976812828424713
23.22775 0.6019296506407958 -0.8005341937680994
23.352625 0.5993765969629299 -0.8034698928817745
23.4775 0.5945288178345759 -0.8061123537230426
23.602375 0.591584103576999 -0.8082819190801027
23.72725 0.5875557225808571 -0.811521836700619
23.852125 0.5840537671933286 -0.8140288382978071
23.977 0.5814051180041793 -0.8163673421470348
24.101875 0.5767806890212345 -0.8194977300884272
24.22675 0.5734772348784136 -0.8212047731660562
24.351625 0.5705297341657972 -0.8240335177674005
24.4765 0.5659608567616072 -0.8265856354458212
24.601375 0.5629329067270465 -0.8291351284083919
24.72625 0.5595756073652335 -0.8315276473016346
24.851125 0.556235139971579 -0.8337920489133317
24.976 0.5532299053494659 -0.8358211339525047
25.100875 0.549227834144403 -0.8380965775109657
25.22575 0.5459747953724082 -0.8405454288010696
25.350625 0.5420318353234952 -0.8424062172873361
25.4755 0.5385004911283293 -0.8457200144607375
25.600375 0.535049402109111 -0.8471090439553761
25.72525 0.5308854815721196 -0.8497043557076338
25.850125 0.528145966106289 -0.8513670093324626
25.975 0.5236883261371421 -0.8537084444436236
26.099875 0.5205147543796929 -0.8559959193396788
26.22475 0.5172135314698535 -0.8584940178805627
26.349625 0.5136640456146464 -0.8606658284719046
26.4745 0.5090884147617418 -0.8618308122560432
26.599375 0.5062907270111044 -0.8645888677428226
26.72425 0.50296360507951 -0.8668284106708317
26.849125 0.4990872278506403 -0.8686838126592653
26.974 0.49577072419577256 -0.8704049278112473
27.098875 0.49197109861169147 -0.8732183088950842
27.22375 0.48857425920812975 -0.8746904009388738
27.348625 0.48526616647250564 -0.8771950708594655
27.4735 0.4815269902450599 -0.8790103387173469
27.598375 0.47858005568346584 -0.8806525775844081
27.72325 0.47401172025161753 -0.8823332133614441
27.848125 0.47031125938047785 -0.8842504152254486
27.973 0.46700020869412756 -0.8869696136571014
28.097875 0.4634358881749987 -0.8886662738838976
28.22275 0.4597304027707186 -0.890112336354431
28.347625 0.4569007833831676 -0.8920481983933588
28.4725 0.45337116994394655 -0.8938995266029391
28.597375 0.44983695766700055 -0.8960481134009382
28.72225 0.44633536823176156 -0.8974984785467585
28.847125 0.44224073805205955 -0.8994406115719227
28.972 0.43862215041203917 -0.9009523627283544
29.096875 0.4350513401745686 -0.9030122584691451
29.22175 0.4310828097351089 -0.9047488409833341
29.346625 0.4290324647875168 -0.9062132862396266
29.4715 0.42463254373401116 -0.9073789179251908
29.596375 0.421673825740539 -0.9097823850636158
29.72125 0.4174849864863008 -0.9108029761404025
29.846125 0.4140527692197819 -0.9125305238354582
29.971 0.41061981386674457 -0.9137362248473957
30.095875 0.40690640874928324 -0.9160486745513506
30.22075 0.40303881223672644 -0.9172482087513216
30.345625 0.39937689459245673 -0.9192352070434646
30.4705 0.395825603903814 -0.9208442184398228
30.595375 0.39260385237083334 -0.9217440328742897
30.72025 0.38973276748732283 -0.9236925163076106
30.845125 0.3856141714100692 -0.9252648842877104
30.97 0.3819722215748909 -0.9264264572767538
31.094875 0.37821396292632553 -0.9283444233761355
31.21975 0.375561497950173 -0.9290164527714324
31.344625 0.3723682958376918 -0.9309365201703048
31.4695 0.36764521770876407 -0.9326442805379428
31.594375 0.36480046313216424 -0.9334950793930124
31.71925 0.36076340940461504 -0.9352921832438208
31.844125 0.3572610458269904 -0.9367268719075199
31.969 0.35391427603100695 -0.9379100397022502
32.093875 0.35040099447709855 -0.9395785221114166
32.21875 0.34657779441466074 -0.9405974755375677
32.343625 0.3434340316434933 -0.9419200419743405
32.4685 0.3399219318972617 -0.9423566280090758
32.593375 0.33718265511399276 -0.9440387759087583
32.71825 0.3329360008012548 -0.9455307407112805
32.843125 0.32966452168619065 -0.9458298766034168
32.968 0.3256615988288943 -0.9479399314096663
33.092875 0.3224322954458311 -0.9494008219626426
33.21775 0.31814021191964537 -0.949826484425838
33.342625 0.315192872001992 -0.9516118529427346
33.4675 0.31177451164895253 -0.9520866408489908
33.592375 0.3089055481094631 -0.954519644740715
33.71725 0.3045963728923226 -0.956010659737916
33.842125 0.301995545657953 -0.9557335953686397
33.967 0.2982927862308592 -0.9564592888057373
34.091875 0.2946192849204568 -0.9576571080516186
34.21675 0.29091263445800825 -0.9591283656224573
34.341625 0.2880097890063673 -0.9608900186999826
34.4665 0.28423483477549844 -0.9606644669224627
34.591375 0.2803557983320332 -0.9616813408761749
34.71625 0.2776808907389685 -0.9634059242964231
34.841125 0.27329070937151767 -0.9641629800208837
34.966 0.2704106086828526 -0.9647965507454539
35.090875 0.26700671845761376 -0.9659305350429376
35.21575 0.2631583276200598 -0.9670295255282837
35.340625 0.2599703290672325 -0.9677046299942682
35.4655 0.25664624465870833 -0.9687109215526272
35.590375 0.2542200254497352 -0.9693125370765318
35.71525 0.24922334528936158 -0.9708214335104556
35.840125 0.24653360142162484 -0.9714083039823014
35.965 0.2439166192668279 -0.9719564509142766
36.089875 0.24066039386123383 -0.9725437264435614
36.21475 0.23581728207753205 -0.9738420651924988
36.339625 0.23313376472929853 -0.974129466843304
36.4645 0.23048629420548195 -0.9761560400798142
36.589375 0.2263220020962584 -0.9760838042663829
36.71425 0.22240300895502663 -0.9772052886357994
36.839125 0.21976272731258345 -0.9780909159016448
36.964 0.21559121302612594 -0.9787898868219829
37.088875 0.2134450789004363 -0.978994437834782
37.21375 0.2092027352106957 -0.9797442682341349
37.338625 0.20604482196500679 -0.980508113113345
37.4635 0.202770216083765 -0.9806153569798216
37.588375 0.1990474662974322 -0.9822922888609543
37.71325 0.196702995941007 -0.9831410424671236
37.838125 0.1931977535463944 -0.9833452169462539
37.963 0.1895799712081606 -0.9837900826192714
38.087875 0.18581889027552673 -0.9850088207528441
38.21275 0.18312633560045566 -0.9855806750605789
38.337625 0.18052704321625618 -0.9858551463632357
38.4625 0.17678326382123888 -0.9862763948056117
38.587375 0.17421223509018957 -0.9867973835590278
38.71225 0.17072214754550014 -0.9871891513244169
38.837125 0.1665316689620231 -0.9878671869649047
38.962 0.16340827102524863 -0.9887380314487748
39.086875 0.16027426846386933 -0.988681697590083
39.21175 0.157093447537209 -0.98916323909694
39.336625 0.15387085836371112 -0.9904157479591007
39.4615 0.1495784189228111 -0.9905696935960075
39.586375 0.14733054942668544 -0.9905682079215234
39.71125 0.14398599186807803 -0.9910050920537963
39.836125 0.14093571162754548 -0.9916937231026651
39.961 0.13824163000857248 -0.992849840536896
40.085875 0.13473149065739043 -0.9929965231652951
40.21075 0.1307064859537304 -0.9941173610701858
40.335625 0.12854621931960036 -0.993305982888063
40.4605 0.12526771511086343 -0.9944280931315392
40.585375 0.1215143774665346 -0.9944505272415869
40.71025 0.12010509955202886 -0.9956027349097241
40.835125 0.11498957836670087 -0.9957804469589729
40.96 0.11259138785264328 -0.9963751787512163
41.084875 0.10909623943805447 -0.9964164201910094
41.20975 0.10636720262822119 -0.9959680263060604
41.334625 0.10248983109425869 -0.9973563613753305
41.4595 0.10007529680153149 -0.9966032634229578
41.584375 0.09695561287149512 -0.9970198145389084
41.70925 0.0941279704733825 -0.9975226657685896
41.834125 0.09037827108257462 -0.9977756982127788
41.959 0.0880227763513195 -0.997937033771874
42.083875 0.084522023402264 -0.998618888525181
42.20875 0.08150586558274442 -0.9996671925271501
42.333625 0.07833298254097482 -0.9990591310846562
42.4585 0.07438449373677525 -0.9988973521976516
42.583375 0.0724704931137457 -0.9990439391190109
42.70825 0.06884676334231404 -0.9988871003248357
42.833125 0.066129227235041 -0.9996297352236833
42.958 0.06270499380880279 -1.0002606417524873
43.082875 0.06034183857805392 -0.9995558133473001
43.20775 0.05664168873194764 -1.0006930131068639
43.332625 0.053894488787503414 -1.0003592834750017
43.4575 0.05042854136608743 -1.0008953214237604
43.582375 0.04726284054859242 -1.000737231020735
43.70725 0.04550602112095603 -1.0010841233879382
43.832125 0.04162254107944108 -1.0008730785794206
43.957 0.03929964681296427 -1.0017284988550668
44.081875 0.03673188137869765 -1.00156085997077
44.20675 0.03296957222018071 -1.0014470658250088
44.331625 0.02998324692096721 -1.0019071305364358
44.4565 0.026987971603855465 -1.001733651295279
44.581375 0.023479974551035565 -1.0011951397525702
44.70625 0.021695718722843427 -1.0012657165667376
44.831125 0.017276106361978905 -1.0015071519396066
44.956 0.016227713254459764 -1.0017242929864953
45.080875 0.012704696897685108 -1.001844648492794
45.20575 0.009545320946795721 -1.0013436429190874
45.330625 0.006895919106996218 -1.0020870985525994
45.4555 0.0032218496510103556 -1.001080454079156
45.580375 0.0008105291485316357 -1.001810567543723
45.70525 -0.002266856935612571 -1.0013631820614841
45.830125 -0.004524766823697957 -1.0009769006412772
45.955 -0.007489668536830252 -1.0011330130903686
46.079875 -0.011003429705284007 -1.0010722684391267
46.20475 -0.013462924198424486 -1.0009903640630124
46.329625 -0.016410768636838657 -1.001560700623867
46.4545 -0.01920754146125553 -1.0011080311079723
46.579375 -0.02240651907925867 -1.0023126180499136
46.70425 -0.02531076884722816 -1.0014796119804825
46.829125 -0.028379557511087505 -1.001117247966998
46.954 -0.031108577374498514 -1.0002733231849597
47.078875 -0.03367214426336146 -1.0006045882727939
47.20375 -0.03591343884609671 -1.0010266262730245
47.328625 -0.03872444128928976 -0.9999144971119048
47.4535 -0.04180440134178326 -1.0003922786809945
47.578375 -0.0445133608995979 -1.0000415437403367
47.70325 -0.04652882580679085 -1.000349247527286
47.828125 -0.04980237056382936 -1.0001209776350557
47.953 -0.05288989863066612 -0.9996208662116577
48.077875 -0.05519527980233663 -1.000067243819074
48.20275 -0.05862626417414479 -0.9994851193620405
48.327625 -0.06089110770074074 -0.9994880889074005
48.4525 -0.06375790003570703 -0.9998043448819953
48.577375 -0.06573244771289793 -0.9998598700239032
48.70225 -0.06976338547896982 -0.99869095422603
48.827125 -0.0719968728143825 -0.9984926574989814
48.952 -0.0747480103954477 -0.9978833732627148
49.076875 -0.07699249363597765 -0.9990399002765498
49.20175 -0.07951937751092236 -0.9980264529759508
49.326625 -0.08224152382676125 -0.9981122361284405
49.4515 -0.08540101853927423 -0.9969817998583246
49.576375 -0.08692233400496352 -0.9973395435367753
49.70125 -0.09079346648745856 -0.9972480350200276
49.826125 -0.09272876801278723 -0.9973003533252003
49.951 -0.09543722327739795 -0.9964954308138768
50.075875 -0.09881035654530429 -0.9955529752731052
50.20075 -0.1010011165480999 -0.9965200826152169
50.325625 -0.1032331076968907 -0.9955789347547415
50.4505 -0.1060456281140768 -0.995529114991916
50.575375 -0.10886612265187529 -0.9953679856719522
50.70025 -0.11142914139532173 -0.9957270319123159
50.825125 -0.11481604020965852 -0.9947396709701818
50.95 -0.11565863770847568 -0.9944191428334708
51.074875 -0.11920613230334665 -0.9943349835231144
51.19975 -0.12202385221357909 -0.9938093370236334
51.324625 -0.12492536527327203 -0.99312510609996
51.4495 -0.12688963293106637 -0.9932110551782272
51.574375 -0.12989970026932895 -0.9928265323096412
51.69925 -0.13217641487737086 -0.9924579969298291
51.824125 -0.13410678623333927 -0.9926407352346331
51.949 -0.13758619155623714 -0.9913657242536189
52.073875 -0.13984084503324695 -0.9913335204230724
52.19875 -0.1423827547985818 -0.9907946811759933
