! ListType=Lin
# MHz S RI R 50
  1.0000000   1.0003952  -0.0013067 
  1.1248750   1.0002484  -0.0009613 
  1.2497500   1.0002008  -0.0013520 
  1.3746250   0.9997776  -0.0014757 
  1.4995000   0.9999929  -0.0016658 
  1.6243750   0.9996381  -0.0011658 
  1.7492500   0.9999321  -0.0013128 
  1.8741250   1.0000179  -0.0014400 
  1.9990000   1.0000465  -0.0019195 
  2.1238750   0.9998097  -0.0025778 
  2.2487500   1.0005177  -0.0018372 
  2.3736250   0.9996944  -0.0021126 
  2.4985000   1.0004234  -0.0019060 
  2.6233750   1.0000259  -0.0022359 
  2.7482500   0.9998554  -0.0028654 
  2.8731250   0.9998086  -0.0019802 
  2.9980000   0.9992107  -0.0023357 
  3.1228750   0.9998158  -0.0027564 
  3.2477500   1.0000789  -0.0028382 
  3.3726250   0.9999093  -0.0027829 
  3.4975000   0.9999701  -0.0030232 
  3.6223750   1.0002144  -0.0033452 
  3.7472500   1.0000849  -0.0035018 
  3.8721250   0.9996910  -0.0031620 
  3.9970000   0.9998969  -0.0034256 
  4.1218750   0.9995411  -0.0036451 
  4.2467500   0.9993947  -0.0034999 
  4.3716250   0.9995023  -0.0037773 
  4.4965000   0.9999130  -0.0039288 
  4.6213750   0.9993391  -0.0041314 
  4.7462500   1.0000732  -0.0042213 
  4.8711250   0.9999315  -0.0038654 
  4.9960000   0.9997795  -0.0044300 
  5.1208750   0.9994886  -0.0036827 
  5.2457500   0.9999563  -0.0044618 
  5.3706250   0.9999812  -0.0042597 
  5.4955000   0.9997648  -0.0044637 
  5.6203750   0.9995402  -0.0049397 
  5.7452500   0.9996729  -0.0046533 
  5.8701250   1.0002407  -0.0049195 
  5.9950000   0.9992657  -0.0050028 
  6.1198750   0.9998183  -0.0050913 
  6.2447500   1.0003225  -0.0049436 
  6.3696250   0.9998232  -0.0050191 
  6.4945000   0.9992772  -0.0057956 
  6.6193750   0.9993726  -0.0057379 
  6.7442500   0.9993461  -0.0053781 
  6.8691250   0.9994387  -0.0057315 
  6.9940000   0.9996661  -0.0056562 
  7.1188750   0.9995972  -0.0058162 
  7.2437500   0.9993890  -0.0055396 
  7.3686250   0.9996418  -0.0060531 
  7.4935000   0.9994765  -0.0059458 
  7.6183750   0.9990315  -0.0059580 
  7.7432500   0.9998129  -0.0069572 
  7.8681250   0.9995462  -0.0065525 
  7.9930000   0.9994435  -0.0068672 
  8.1178750   0.9989507  -0.0065409 
  8.2427500   0.9988522  -0.0069906 
  8.3676250   0.9999209  -0.0067335 
  8.4925000   0.9993919  -0.0070435 
  8.6173750   0.9985881  -0.0067797 
  8.7422500   0.9991552  -0.0068658 
  8.8671250   0.9997371  -0.0071978 
  8.9920000   0.9989380  -0.0072774 
  9.1168750   0.9993193  -0.0078748 
  9.2417500   0.9994073  -0.0078899 
  9.3666250   0.9990525  -0.0080699 
  9.4915000   0.9991408  -0.0079284 
  9.6163750   0.9997297  -0.0076419 
  9.7412500   0.9997294  -0.0078097 
  9.8661250   0.9993766  -0.0080086 
  9.9910000   0.9993825  -0.0084356 
 10.1158750   0.9992410  -0.0084012 
 10.2407500   0.9994297  -0.0080583 
 10.3656250   0.9989697  -0.0081055 
 10.4905000   0.9988978  -0.0084637 
 10.6153750   0.9992465  -0.0089753 
 10.7402500   0.9985248  -0.0083977 
 10.8651250   0.9987654  -0.0087261 
 10.9900000   0.9987353  -0.0090243 
 11.1148750   0.9993202  -0.0095080 
 11.2397500   0.9988131  -0.0092148 
 11.3646250   0.9989237  -0.0093529 
 11.4895000   0.9985622  -0.0090256 
 11.6143750   0.9987034  -0.0093496 
 11.7392500   0.9988361  -0.0096760 
 11.8641250   0.9987370  -0.0092182 
 11.9890000   0.9986423  -0.0097385 
 12.1138750   0.9987535  -0.0100685 
 12.2387500   0.9987264  -0.0099926 
 12.3636250   0.9988628  -0.0103892 
 12.4885000   0.9990250  -0.0094317 
 12.6133750   0.9987750  -0.0100620 
 12.7382500   0.9986638  -0.0101790 
 12.8631250   0.9983061  -0.0104928 
 12.9880000   0.9988007  -0.0106648 
 13.1128750   0.9977036  -0.0103611 
 13.2377500   0.9985185  -0.0106825 
 13.3626250   0.9984740  -0.0107918 
 13.4875000   0.9985146  -0.0103131 
 13.6123750   0.9991011  -0.0115351 
 13.7372500   0.9980406  -0.0109051 
 13.8621250   0.9984627  -0.0119220 
 13.9870000   0.9986741  -0.0113370 
 14.1118750   0.9985961  -0.0116984 
 14.2367500   0.9980906  -0.0113870 
 14.3616250   0.9980849  -0.0111059 
 14.4865000   0.9983307  -0.0112607 
 14.6113750   0.9988675  -0.0115472 
 14.7362500   0.9983421  -0.0120608 
 14.8611250   0.9986901  -0.0118785 
 14.9860000   0.9985272  -0.0120767 
 15.1108750   0.9985325  -0.0122471 
 15.2357500   0.9984480  -0.0120078 
 15.3606250   0.9985526  -0.0122271 
 15.4855000   0.9980071  -0.0133413 
 15.6103750   0.9982615  -0.0125730 
 15.7352500   0.9975929  -0.0134204 
 15.8601250   0.9988054  -0.0130527 
 15.9850000   0.9985105  -0.0133438 
 16.1098750   0.9979889  -0.0132084 
 16.2347500   0.9982011  -0.0132653 
 16.3596250   0.9978275  -0.0133648 
 16.4845000   0.9984579  -0.0132191 
 16.6093750   0.9975147  -0.0133275 
 16.7342500   0.9977801  -0.0130725 
 16.8591250   0.9983885  -0.0135420 
 16.9840000   0.9975077  -0.0137697 
 17.1088750   0.9981729  -0.0137673 
 17.2337500   0.9980160  -0.0141176 
 17.3586250   0.9980702  -0.0139009 
 17.4835000   0.9983141  -0.0141087 
 17.6083750   0.9977651  -0.0139794 
 17.7332500   0.9980627  -0.0140120 
 17.8581250   0.9972540  -0.0141866 
 17.9830000   0.9977396  -0.0140595 
 18.1078750   0.9978446  -0.0145789 
 18.2327500   0.9980698  -0.0145514 
 18.3576250   0.9975648  -0.0148803 
 18.4825000   0.9972341  -0.0143046 
 18.6073750   0.9972891  -0.0148218 
 18.7322500   0.9974921  -0.0147108 
 18.8571250   0.9976757  -0.0148463 
 18.9820000   0.9977988  -0.0146510 
 19.1068750   0.9976142  -0.0149983 
 19.2317500   0.9969874  -0.0153486 
 19.3566250   0.9968069  -0.0152957 
 19.4815000   0.9974774  -0.0154803 
 19.6063750   0.9976345  -0.0158058 
 19.7312500   0.9972568  -0.0158929 
 19.8561250   0.9974465  -0.0160870 
 19.9810000   0.9969611  -0.0153362 
 20.1058750   0.9966927  -0.0163379 
 20.2307500   0.9973520  -0.0160985 
 20.3556250   0.9972509  -0.0160678 
 20.4805000   0.9970642  -0.0162437 
 20.6053750   0.9967144  -0.0161345 
 20.7302500   0.9970821  -0.0163744 
 20.8551250   0.9968665  -0.0167273 
 20.9800000   0.9972385  -0.0167392 
 21.1048750   0.9967750  -0.0165317 
 21.2297500   0.9965681  -0.0172248 
 21.3546250   0.9969691  -0.0168183 
 21.4795000   0.9968961  -0.0175540 
 21.6043750   0.9964800  -0.0173483 
 21.7292500   0.9964719  -0.0171838 
 21.8541250   0.9965733  -0.0176034 
 21.9790000   0.9968540  -0.0178076 
 22.1038750   0.9969943  -0.0172527 
 22.2287500   0.9965126  -0.0179492 
 22.3536250   0.9968063  -0.0178072 
 22.4785000   0.9968126  -0.0179234 
 22.6033750   0.9971907  -0.0179397 
 22.7282500   0.9963574  -0.0180094 
 22.8531250   0.9968210  -0.0176394 
 22.9780000   0.9967555  -0.0179004 
 23.1028750   0.9968505  -0.0184531 
 23.2277500   0.9964143  -0.0183300 
 23.3526250   0.9963319  -0.0185197 
 23.4775000   0.9963901  -0.0189827 
 23.6023750   0.9967687  -0.0187232 
 23.7272500   0.9964441  -0.0187698 
 23.8521250   0.9964626  -0.0188523 
 23.9770000   0.9965039  -0.0190473 
 24.1018750   0.9965769  -0.0188383 
 24.2267500   0.9967842  -0.0197390 
 24.3516250   0.9959843  -0.0193209 
 24.4765000   0.9965150  -0.0191297 
 24.6013750   0.9962924  -0.0193553 
 24.7262500   0.9963471  -0.0197132 
 24.8511250   0.9963110  -0.0196964 
 24.9760000   0.9959700  -0.0200082 
 25.1008750   0.9962897  -0.0200053 
 25.2257500   0.9956829  -0.0196440 
 25.3506250   0.9960997  -0.0197923 
 25.4755000   0.9961318  -0.0197221 
 25.6003750   0.9961620  -0.0203653 
 25.7252500   0.9957297  -0.0205863 
 25.8501250   0.9959073  -0.0207870 
 25.9750000   0.9957113  -0.0207749 
 26.0998750   0.9958964  -0.0204018 
 26.2247500   0.9963562  -0.0208158 
 26.3496250   0.9966001  -0.0206798 
 26.4745000   0.9963823  -0.0206920 
 26.5993750   0.9960393  -0.0208368 
 26.7242500   0.9964582  -0.0214878 
 26.8491250   0.9957859  -0.0214594 
 26.9740000   0.9962012  -0.0212380 
 27.0988750   0.9954960  -0.0215763 
 27.2237500   0.9957490  -0.0213137 
 27.3486250   0.9955759  -0.0217966 
 27.4735000   0.9954828  -0.0215061 
 27.5983750   0.9954290  -0.0220415 
 27.7232500   0.9952787  -0.0218825 
 27.8481250   0.9961755  -0.0215799 
 27.9730000   0.9959031  -0.0224197 
 28.0978750   0.9953377  -0.0219910 
 28.2227500   0.9953134  -0.0219751 
 28.3476250   0.9955685  -0.0224182 
 28.4725000   0.9953913  -0.0222468 
 28.5973750   0.9951733  -0.0225422 
 28.7222500   0.9952948  -0.0228849 
 28.8471250   0.9957977  -0.0228055 
 28.9720000   0.9956659  -0.0227824 
 29.0968750   0.9955828  -0.0228069 
 29.2217500   0.9955533  -0.0230049 
 29.3466250   0.9957901  -0.0230600 
 29.4715000   0.9951792  -0.0235405 
 29.5963750   0.9949072  -0.0235690 
 29.7212500   0.9953404  -0.0236729 
 29.8461250   0.9950123  -0.0238410 
 29.9710000   0.9950122  -0.0235258 
 30.0958750   0.9952817  -0.0240962 
 30.2207500   0.9952578  -0.0242119 
 30.3456250   0.9954717  -0.0240026 
 30.4705000   0.9953202  -0.0242043 
 30.5953750   0.9943263  -0.0240822 
 30.7202500   0.9950808  -0.0243564 
 30.8451250   0.9950164  -0.0246001 
 30.9700000   0.9949039  -0.0247479 
 31.0948750   0.9949721  -0.0244286 
 31.2197500   0.9949310  -0.0248027 
 31.3446250   0.9951579  -0.0244181 
 31.4695000   0.9946999  -0.0247468 
 31.5943750   0.9946693  -0.0247133 
 31.7192500   0.9942946  -0.0252593 
 31.8441250   0.9944361  -0.0248870 
 31.9690000   0.9947404  -0.0249982 
 32.0938750   0.9948759  -0.0255351 
 32.2187500   0.9945637  -0.0257255 
 32.3436250   0.9947098  -0.0252142 
 32.4685000   0.9950423  -0.0258531 
 32.5933750   0.9943658  -0.0259192 
 32.7182500   0.9947837  -0.0260418 
 32.8431250   0.9945384  -0.0256762 
 32.9680000   0.9946731  -0.0258837 
 33.0928750   0.9949111  -0.0258907 
 33.2177500   0.9949331  -0.0258827 
 33.3426250   0.9940409  -0.0262231 
 33.4675000   0.9945581  -0.0262073 
 33.5923750   0.9944295  -0.0265382 
 33.7172500   0.9944532  -0.0263828 
 33.8421250   0.9943533  -0.0266606 
 33.9670000   0.9942742  -0.0267247 
 34.0918750   0.9943509  -0.0266943 
 34.2167500   0.9944404  -0.0270943 
 34.3416250   0.9943162  -0.0270691 
 34.4665000   0.9941248  -0.0269853 
 34.5913750   0.9944835  -0.0272058 
 34.7162500   0.9944330  -0.0274586 
 34.8411250   0.9940943  -0.0273327 
 34.9660000   0.9943074  -0.0271578 
 35.0908750   0.9942247  -0.0275700 
 35.2157500   0.9943136  -0.0278591 
 35.3406250   0.9942826  -0.0280317 
 35.4655000   0.9939303  -0.0281700 
 35.5903750   0.9939063  -0.0277797 
 35.7152500   0.9941404  -0.0279990 
 35.8401250   0.9942810  -0.0283098 
 35.9650000   0.9939694  -0.0282906 
 36.0898750   0.9941346  -0.0283834 
 36.2147500   0.9937615  -0.0282547 
 36.3396250   0.9934969  -0.0282026 
 36.4645000   0.9940514  -0.0285913 
 36.5893750   0.9936669  -0.0290842 
 36.7142500   0.9940899  -0.0288672 
 36.8391250   0.9937498  -0.0289723 
 36.9640000   0.9937634  -0.0290843 
 37.0888750   0.9937521  -0.0292804 
 37.2137500   0.9943095  -0.0293072 
 37.3386250   0.9940821  -0.0290121 
 37.4635000   0.9939997  -0.0291036 
 37.5883750   0.9934865  -0.0294042 
 37.7132500   0.9937469  -0.0297844 
 37.8381250   0.9942678  -0.0294188 
 37.9630000   0.9941039  -0.0297468 
 38.0878750   0.9943032  -0.0300370 
 38.2127500   0.9939482  -0.0298546 
 38.3376250   0.9936198  -0.0303149 
 38.4625000   0.9936515  -0.0303872 
 38.5873750   0.9938464  -0.0307911 
 38.7122500   0.9937725  -0.0305937 
 38.8371250   0.9939969  -0.0306903 
 38.9620000   0.9934085  -0.0305702 
 39.0868750   0.9940218  -0.0302209 
 39.2117500   0.9939014  -0.0310911 
 39.3366250   0.9933528  -0.0310161 
 39.4615000   0.9936419  -0.0312186 
 39.5863750   0.9934199  -0.0309688 
 39.7112500   0.9936686  -0.0312403 
 39.8361250   0.9939275  -0.0315666 
 39.9610000   0.9934439  -0.0308535 
 40.0858750   0.9935882  -0.0316048 
 40.2107500   0.9935761  -0.0312888 
 40.3356250   0.9937550  -0.0317485 
 40.4605000   0.9933808  -0.0318543 
 40.5853750   0.9932735  -0.0318434 
 40.7102500   0.9935725  -0.0321280 
 40.8351250   0.9935839  -0.0318900 
 40.9600000   0.9929088  -0.0319235 
 41.0848750   0.9931815  -0.0323188 
 41.2097500   0.9941263  -0.0322735 
 41.3346250   0.9932246  -0.0322611 
 41.4595000   0.9934800  -0.0324811 
 41.5843750   0.9940414  -0.0331130 
 41.7092500   0.9933519  -0.0325131 
 41.8341250   0.9937085  -0.0328875 
 41.9590000   0.9932909  -0.0332212 
 42.0838750   0.9934798  -0.0329318 
 42.2087500   0.9933768  -0.0331700 
 42.3336250   0.9935187  -0.0330340 
 42.4585000   0.9937244  -0.0330018 
 42.5833750   0.9936669  -0.0332750 
 42.7082500   0.9932966  -0.0338986 
 42.8331250   0.9930062  -0.0336339 
 42.9580000   0.9932130  -0.0336151 
 43.0828750   0.9931287  -0.0339331 
 43.2077500   0.9928065  -0.0333799 
 43.3326250   0.9929884  -0.0337646 
 43.4575000   0.9934777  -0.0340942 
 43.5823750   0.9926638  -0.0339012 
 43.7072500   0.9931564  -0.0342895 
 43.8321250   0.9932393  -0.0345232 
 43.9570000   0.9932925  -0.0344490 
 44.0818750   0.9933555  -0.0344079 
 44.2067500   0.9929646  -0.0344457 
 44.3316250   0.9929451  -0.0345285 
 44.4565000   0.9932072  -0.0343415 
 44.5813750   0.9937057  -0.0352633 
 44.7062500   0.9928954  -0.0354425 
 44.8311250   0.9930615  -0.0353731 
 44.9560000   0.9933805  -0.0350703 
 45.0808750   0.9929996  -0.0350110 
 45.2057500   0.9931356  -0.0351514 
 45.3306250   0.9929025  -0.0356269 
 45.4555000   0.9926968  -0.0356495 
 45.5803750   0.9928553  -0.0361661 
 45.7052500   0.9927727  -0.0356092 
 45.8301250   0.9933271  -0.0357067 
 45.9550000   0.9933845  -0.0363597 
 46.0798750   0.9933319  -0.0360830 
 46.2047500   0.9929305  -0.0363839 
 46.3296250   0.9930529  -0.0359372 
 46.4545000   0.9931616  -0.0367497 
 46.5793750   0.9930331  -0.0361944 
 46.7042500   0.9927966  -0.0367445 
 46.8291250   0.9929754  -0.0361066 
 46.9540000   0.9930674  -0.0367223 
 47.0788750   0.9932394  -0.0372524 
 47.2037500   0.9934294  -0.0366426 
 47.3286250   0.9927640  -0.0371068 
 47.4535000   0.9929986  -0.0374335 
 47.5783750   0.9930021  -0.0366023 
 47.7032500   0.9927208  -0.0369998 
 47.8281250   0.9928874  -0.0368813 
 47.9530000   0.9924505  -0.0373812 
 48.0778750   0.9930461  -0.0372517 
 48.2027500   0.9929506  -0.0373033 
 48.3276250   0.9931679  -0.0376430 
 48.4525000   0.9922343  -0.0377185 
 48.5773750   0.9925975  -0.0377908 
 48.7022500   0.9935671  -0.0379876 
 48.8271250   0.9929570  -0.0382372 
 48.9520000   0.9928101  -0.0379243 
 49.0768750   0.9928662  -0.0382544 
 49.2017500   0.9927777  -0.0383038 
 49.3266250   0.9930485  -0.0383602 
 49.4515000   0.9927018  -0.0381960 
 49.5763750   0.9928090  -0.0384644 
 49.7012500   0.9931879  -0.0390459 
 49.8261250   0.9932219  -0.0381405 
 49.9510000   0.9932700  -0.0388714 
 50.0758750   0.9931451  -0.0391668 
 50.2007500   0.9925500  -0.0387408 
 50.3256250   0.9929171  -0.0389778 
 50.4505000   0.9926260  -0.0391252 
 50.5753750   0.9923379  -0.0396211 
 50.7002500   0.9929052  -0.0395826 
 50.8251250   0.9930186  -0.0392023 
 50.9500000   0.9925866  -0.0388510 
 51.0748750   0.9930136  -0.0395592 
 51.1997500   0.9929075  -0.0396703 
 51.3246250   0.9931017  -0.0397025 
 51.4495000   0.9929436  -0.0401301 
 51.5743750   0.9935020  -0.0399918 
 51.6992500   0.9925539  -0.0401973 
 51.8241250   0.9931327  -0.0404235 
 51.9490000   0.9926048  -0.0401837 
 52.0738750   0.9934269  -0.0398867 
 52.1987500   0.9924587  -0.0403312 
 52.3236250   0.9932063  -0.0409958 
 52.4485000   0.9935204  -0.0412664 
 52.5733750   0.9930055  -0.0404859 
 52.6982500   0.9930257  -0.0408545 
 52.8231250   0.9926996  -0.0409591 
 52.9480000   0.9927071  -0.0417141 
 53.0728750   0.9924732  -0.0410735 
 53.1977500   0.9927587  -0.0408995 
 53.3226250   0.9932019  -0.0413955 
 53.4475000   0.9929747  -0.0415850 
 53.5723750   0.9930270  -0.0418715 
 53.6972500   0.9933851  -0.0420172 
 53.8221250   0.9929328  -0.0416109 
 53.9470000   0.9933603  -0.0415688 
 54.0718750   0.9927615  -0.0418866 
 54.1967500   0.9933482  -0.0420223 
 54.3216250   0.9931496  -0.0421824 
 54.4465000   0.9931373  -0.0424767 
 54.5713750   0.9933408  -0.0423431 
 54.6962500   0.9930165  -0.0421667 
 54.8211250   0.9930209  -0.0425102 
 54.9460000   0.9935374  -0.0425058 
 55.0708750   0.9930630  -0.0430265 
 55.1957500   0.9930361  -0.0431309 
 55.3206250   0.9932184  -0.0429208 
 55.4455000   0.9931662  -0.0430829 
 55.5703750   0.9931182  -0.0428032 
 55.6952500   0.9926174  -0.0432022 
 55.8201250   0.9932215  -0.0431596 
 55.9450000   0.9937432  -0.0436281 
 56.0698750   0.9932733  -0.0434870 
 56.1947500   0.9931359  -0.0438069 
 56.3196250   0.9927408  -0.0438945 
 56.4445000   0.9925436  -0.0438172 
 56.5693750   0.9933122  -0.0445036 
 56.6942500   0.9932618  -0.0441032 
 56.8191250   0.9935746  -0.0440776 
 56.9440000   0.9933888  -0.0442666 
 57.0688750   0.9939409  -0.0442645 
 57.1937500   0.9924830  -0.0446023 
 57.3186250   0.9929603  -0.0444256 
 57.4435000   0.9932047  -0.0449490 
 57.5683750   0.9931158  -0.0448147 
 57.6932500   0.9931040  -0.0450663 
 57.8181250   0.9930783  -0.0449857 
 57.9430000   0.9932755  -0.0453238 
 58.0678750   0.9927331  -0.0454685 
 58.1927500   0.9929329  -0.0447240 
 58.3176250   0.9935002  -0.0449312 
 58.4425000   0.9932985  -0.0455561 
 58.5673750   0.9930066  -0.0455744 
 58.6922500   0.9936931  -0.0456209 
 58.8171250   0.9929677  -0.0458272 
 58.9420000   0.9935147  -0.0458858 
 59.0668750   0.9932384  -0.0459741 
 59.1917500   0.9931543  -0.0456019 
 59.3166250   0.9934659  -0.0459186 
 59.4415000   0.9935992  -0.0465553 
 59.5663750   0.9935782  -0.0464429 
 59.6912500   0.9933193  -0.0467471 
 59.8161250   0.9934826  -0.0459083 
 59.9410000   0.9934447  -0.0467510 
 60.0658750   0.9928493  -0.0464689 
 60.1907500   0.9940143  -0.0468627 
 60.3156250   0.9935495  -0.0466713 
 60.4405000   0.9936489  -0.0465047 
 60.5653750   0.9939072  -0.0466764 
 60.6902500   0.9938570  -0.0470784 
 60.8151250   0.9938118  -0.0472270 
 60.9400000   0.9941310  -0.0468782 
 61.0648750   0.9931407  -0.0474494 
 61.1897500   0.9939867  -0.0475183 
 61.3146250   0.9938653  -0.0476071 
 61.4395000   0.9939420  -0.0477465 
 61.5643750   0.9936320  -0.0476772 
 61.6892500   0.9941579  -0.0477337 
 61.8141250   0.9937278  -0.0480713 
 61.9390000   0.9938900  -0.0478617 
 62.0638750   0.9940206  -0.0475025 
 62.1887500   0.9934181  -0.0481728 
 62.3136250   0.9935959  -0.0484174 
 62.4385000   0.9933164  -0.0483746 
 62.5633750   0.9939643  -0.0487481 
 62.6882500   0.9941231  -0.0487619 
 62.8131250   0.9938969  -0.0486092 
 62.9380000   0.9938243  -0.0484528 
 63.0628750   0.9937918  -0.0489598 
 63.1877500   0.9935089  -0.0493764 
 63.3126250   0.9942353  -0.0490933 
 63.4375000   0.9940608  -0.0496452 
 63.5623750   0.9933508  -0.0492047 
 63.6872500   0.9936570  -0.0495479 
 63.8121250   0.9936688  -0.0488384 
 63.9370000   0.9943234  -0.0497991 
 64.0618750   0.9938945  -0.0493623 
 64.1867500   0.9937075  -0.0499477 
 64.3116250   0.9937123  -0.0496474 
 64.4365000   0.9936956  -0.0502048 
 64.5613750   0.9942088  -0.0504642 
 64.6862500   0.9944774  -0.0501625 
 64.8111250   0.9941593  -0.0503474 
 64.9360000   0.9937467  -0.0503245 
 65.0608750   0.9946998  -0.0502553 
 65.1857500   0.9936928  -0.0500268 
 65.3106250   0.9944490  -0.0503584 
 65.4355000   0.9938545  -0.0508229 
 65.5603750   0.9941959  -0.0505666 
 65.6852500   0.9939233  -0.0508468 
 65.8101250   0.9943589  -0.0511239 
 65.9350000   0.9940492  -0.0517050 
 66.0598750   0.9947453  -0.0517073 
 66.1847500   0.9944619  -0.0517992 
 66.3096250   0.9943741  -0.0520192 
 66.4345000   0.9940345  -0.0513902 
