! ListType=Lin
# MHz S RI R 50
  1.0000000  -0.9995751   0.0012898 
  1.1248750  -0.9994175   0.0019049 
  1.2497500  -0.9997016   0.0016248 
  1.3746250  -0.9993414   0.0022521 
  1.4995000  -0.9988868   0.0015289 
  1.6243750  -0.9996344   0.0019175 
  1.7492500  -0.9996433   0.0020399 
  1.8741250  -0.9991214   0.0024262 
  1.9990000  -0.9992978   0.0023020 
  2.1238750  -0.9998720   0.0021302 
  2.2487500  -0.9997515   0.0032099 
  2.3736250  -0.9997352   0.0027304 
  2.4985000  -0.9986099   0.0034176 
  2.6233750  -0.9988757   0.0028343 
  2.7482500  -0.9996269   0.0031012 
  2.8731250  -0.9994073   0.0032850 
  2.9980000  -0.9989131   0.0033298 
  3.1228750  -0.9992944   0.0037905 
  3.2477500  -0.9992352   0.0036049 
  3.3726250  -0.9993701   0.0038281 
  3.4975000  -1.0001320   0.0040697 
  3.6223750  -0.9992687   0.0042339 
  3.7472500  -0.9994844   0.0044998 
  3.8721250  -0.9995752   0.0041163 
  3.9970000  -0.9990612   0.0043170 
  4.1218750  -0.9994931   0.0045081 
  4.2467500  -0.9994893   0.0051633 
  4.3716250  -0.9991104   0.0055302 
  4.4965000  -0.9990100   0.0054194 
  4.6213750  -0.9993010   0.0060226 
  4.7462500  -0.9991673   0.0061542 
  4.8711250  -0.9992747   0.0059253 
  4.9960000  -0.9991381   0.0056930 
  5.1208750  -0.9996929   0.0060199 
  5.2457500  -0.9996580   0.0066075 
  5.3706250  -0.9987755   0.0062028 
  5.4955000  -0.9993206   0.0058746 
  5.6203750  -0.9995758   0.0065709 
  5.7452500  -0.9992819   0.0065565 
  5.8701250  -0.9990620   0.0067522 
  5.9950000  -0.9994003   0.0071667 
  6.1198750  -0.9992596   0.0071787 
  6.2447500  -0.9988974   0.0079084 
  6.3696250  -0.9991123   0.0075224 
  6.4945000  -0.9997736   0.0079061 
  6.6193750  -0.9990145   0.0076683 
  6.7442500  -0.9992213   0.0076481 
  6.8691250  -0.9989801   0.0082349 
  6.9940000  -0.9990156   0.0083574 
  7.1188750  -0.9990876   0.0083088 
  7.2437500  -0.9995618   0.0082865 
  7.3686250  -0.9988103   0.0087429 
  7.4935000  -0.9992088   0.0086162 
  7.6183750  -0.9989167   0.0092158 
  7.7432500  -0.9990824   0.0092565 
  7.8681250  -0.9988762   0.0092863 
  7.9930000  -0.9995871   0.0093235 
  8.1178750  -0.9989563   0.0094703 
  8.2427500  -0.9993070   0.0095911 
  8.3676250  -0.9996475   0.0097231 
  8.4925000  -0.9993157   0.0099860 
  8.6173750  -0.9994587   0.0100370 
  8.7422500  -0.9997255   0.0104570 
  8.8671250  -0.9992302   0.0106204 
  8.9920000  -0.9992026   0.0108136 
  9.1168750  -0.9992532   0.0107660 
  9.2417500  -0.9992294   0.0108000 
  9.3666250  -0.9983300   0.0111873 
  9.4915000  -0.9992077   0.0112455 
  9.6163750  -0.9988803   0.0121722 
  9.7412500  -0.9987770   0.0111677 
  9.8661250  -0.9990372   0.0117585 
  9.9910000  -0.9991669   0.0116645 
 10.1158750  -0.9992009   0.0119701 
 10.2407500  -0.9990705   0.0120167 
 10.3656250  -0.9993809   0.0118877 
 10.4905000  -0.9990420   0.0119418 
 10.6153750  -0.9991331   0.0118031 
 10.7402500  -0.9992610   0.0130294 
 10.8651250  -0.9989506   0.0124332 
 10.9900000  -0.9994125   0.0127787 
 11.1148750  -0.9992608   0.0126244 
 11.2397500  -0.9988788   0.0135071 
 11.3646250  -0.9986157   0.0132524 
 11.4895000  -0.9989855   0.0128968 
 11.6143750  -0.9993929   0.0135846 
 11.7392500  -0.9988128   0.0134500 
 11.8641250  -0.9989065   0.0142965 
 11.9890000  -0.9990440   0.0144214 
 12.1138750  -0.9990467   0.0136660 
 12.2387500  -0.9988024   0.0143847 
 12.3636250  -0.9991037   0.0143715 
 12.4885000  -0.9987857   0.0146402 
 12.6133750  -0.9980701   0.0148678 
 12.7382500  -0.9990112   0.0148970 
 12.8631250  -0.9991111   0.0148685 
 12.9880000  -0.9991467   0.0153007 
 13.1128750  -0.9988825   0.0150182 
 13.2377500  -0.9993792   0.0157936 
 13.3626250  -0.9996572   0.0157353 
 13.4875000  -0.9992870   0.0156779 
 13.6123750  -0.9993255   0.0159726 
 13.7372500  -0.9984438   0.0159215 
 13.8621250  -0.9988220   0.0164614 
 13.9870000  -0.9991425   0.0157578 
 14.1118750  -0.9988666   0.0161542 
 14.2367500  -0.9989474   0.0163814 
 14.3616250  -0.9986389   0.0164301 
 14.4865000  -0.9989354   0.0166339 
 14.6113750  -0.9986090   0.0175226 
 14.7362500  -0.9982277   0.0169847 
 14.8611250  -0.9990796   0.0169824 
 14.9860000  -0.9987737   0.0176461 
 15.1108750  -0.9989846   0.0177872 
 15.2357500  -0.9992751   0.0177334 
 15.3606250  -0.9990154   0.0177826 
 15.4855000  -0.9983991   0.0176726 
 15.6103750  -0.9990271   0.0181040 
 15.7352500  -0.9991427   0.0183372 
 15.8601250  -0.9990500   0.0186075 
 15.9850000  -0.9994419   0.0185001 
 16.1098750  -0.9994149   0.0189401 
 16.2347500  -0.9992932   0.0196027 
 16.3596250  -0.9988728   0.0191655 
 16.4845000  -0.9988160   0.0190649 
 16.6093750  -0.9990599   0.0189765 
 16.7342500  -0.9987507   0.0201642 
 16.8591250  -0.9988189   0.0195700 
 16.9840000  -0.9989642   0.0199993 
 17.1088750  -0.9982225   0.0198593 
 17.2337500  -0.9981051   0.0201688 
 17.3586250  -0.9990638   0.0199071 
 17.4835000  -0.9983249   0.0203665 
 17.6083750  -0.9990034   0.0210831 
 17.7332500  -0.9988453   0.0209091 
 17.8581250  -0.9986836   0.0210219 
 17.9830000  -0.9990544   0.0210781 
 18.1078750  -0.9986975   0.0212920 
 18.2327500  -0.9994970   0.0215605 
 18.3576250  -0.9987404   0.0215463 
 18.4825000  -0.9988036   0.0213665 
 18.6073750  -0.9989942   0.0216314 
 18.7322500  -0.9986409   0.0225017 
 18.8571250  -0.9992741   0.0225048 
 18.9820000  -0.9986218   0.0218489 
 19.1068750  -0.9990344   0.0221682 
 19.2317500  -0.9990201   0.0222587 
 19.3566250  -0.9985998   0.0222796 
 19.4815000  -0.9984965   0.0229495 
 19.6063750  -0.9986244   0.0230208 
 19.7312500  -0.9991468   0.0227636 
 19.8561250  -0.9991467   0.0232045 
 19.9810000  -0.9984795   0.0230448 
 20.1058750  -0.9986745   0.0232011 
 20.2307500  -0.9986121   0.0239064 
 20.3556250  -0.9987161   0.0238875 
 20.4805000  -0.9985267   0.0237261 
 20.6053750  -0.9982585   0.0241103 
 20.7302500  -0.9986152   0.0241776 
 20.8551250  -0.9986991   0.0239479 
 20.9800000  -0.9982417   0.0245927 
 21.1048750  -0.9982651   0.0243619 
 21.2297500  -0.9987058   0.0248012 
 21.3546250  -0.9988537   0.0244526 
 21.4795000  -0.9986267   0.0249542 
 21.6043750  -0.9986324   0.0252465 
 21.7292500  -0.9989504   0.0255480 
 21.8541250  -0.9983584   0.0249955 
 21.9790000  -0.9985893   0.0258144 
 22.1038750  -0.9987661   0.0258940 
 22.2287500  -0.9984252   0.0258071 
 22.3536250  -0.9986741   0.0257583 
 22.4785000  -0.9990581   0.0260869 
 22.6033750  -0.9986254   0.0265343 
 22.7282500  -0.9979252   0.0262507 
 22.8531250  -0.9985966   0.0271075 
 22.9780000  -0.9988603   0.0267004 
 23.1028750  -0.9989945   0.0268780 
 23.2277500  -0.9983707   0.0275556 
 23.3526250  -0.9986615   0.0275887 
 23.4775000  -0.9983993   0.0271671 
 23.6023750  -0.9985860   0.0272163 
 23.7272500  -0.9986733   0.0272431 
 23.8521250  -0.9987844   0.0280452 
 23.9770000  -0.9987012   0.0282307 
 24.1018750  -0.9988310   0.0276940 
 24.2267500  -0.9986415   0.0281115 
 24.3516250  -0.9986272   0.0282839 
 24.4765000  -0.9986947   0.0284408 
 24.6013750  -0.9992636   0.0282294 
 24.7262500  -0.9988585   0.0283227 
 24.8511250  -0.9986937   0.0290319 
 24.9760000  -0.9985552   0.0287943 
 25.1008750  -0.9982788   0.0293027 
 25.2257500  -0.9986179   0.0294429 
 25.3506250  -0.9981605   0.0297835 
 25.4755000  -0.9979820   0.0295473 
 25.6003750  -0.9987533   0.0297263 
 25.7252500  -0.9985926   0.0302292 
 25.8501250  -0.9982910   0.0300831 
 25.9750000  -0.9986325   0.0299195 
 26.0998750  -0.9988681   0.0300334 
 26.2247500  -0.9982819   0.0303974 
 26.3496250  -0.9987566   0.0303064 
 26.4745000  -0.9982770   0.0301865 
 26.5993750  -0.9981583   0.0314925 
 26.7242500  -0.9979911   0.0311352 
 26.8491250  -0.9985691   0.0306551 
 26.9740000  -0.9986999   0.0317367 
 27.0988750  -0.9988807   0.0316538 
 27.2237500  -0.9978996   0.0320470 
 27.3486250  -0.9988208   0.0324684 
 27.4735000  -0.9980253   0.0321405 
 27.5983750  -0.9983792   0.0317803 
 27.7232500  -0.9984843   0.0320096 
 27.8481250  -0.9982809   0.0321081 
 27.9730000  -0.9983559   0.0328763 
 28.0978750  -0.9982080   0.0328539 
 28.2227500  -0.9981671   0.0332171 
 28.3476250  -0.9984460   0.0328621 
 28.4725000  -0.9980500   0.0337407 
 28.5973750  -0.9977296   0.0328347 
 28.7222500  -0.9981318   0.0331904 
 28.8471250  -0.9982035   0.0337084 
 28.9720000  -0.9982210   0.0329025 
 29.0968750  -0.9979813   0.0334000 
 29.2217500  -0.9986484   0.0337636 
 29.3466250  -0.9984660   0.0336591 
 29.4715000  -0.9981880   0.0344892 
 29.5963750  -0.9982660   0.0345740 
 29.7212500  -0.9982127   0.0341579 
 29.8461250  -0.9981000   0.0349269 
 29.9710000  -0.9983623   0.0350929 
 30.0958750  -0.9978329   0.0352324 
 30.2207500  -0.9978105   0.0352950 
 30.3456250  -0.9980956   0.0352172 
 30.4705000  -0.9976799   0.0351049 
 30.5953750  -0.9978365   0.0351703 
 30.7202500  -0.9977462   0.0362037 
 30.8451250  -0.9984994   0.0357062 
 30.9700000  -0.9978123   0.0364454 
 31.0948750  -0.9978905   0.0360884 
 31.2197500  -0.9975093   0.0361869 
 31.3446250  -0.9983425   0.0364890 
 31.4695000  -0.9979477   0.0368072 
 31.5943750  -0.9978285   0.0364004 
 31.7192500  -0.9980472   0.0371396 
 31.8441250  -0.9978370   0.0375993 
 31.9690000  -0.9976749   0.0368258 
 32.0938750  -0.9977452   0.0373546 
 32.2187500  -0.9981769   0.0371735 
 32.3436250  -0.9981730   0.0371140 
 32.4685000  -0.9980421   0.0371069 
 32.5933750  -0.9981505   0.0380495 
 32.7182500  -0.9979987   0.0378369 
 32.8431250  -0.9982564   0.0385096 
 32.9680000  -0.9979997   0.0382373 
 33.0928750  -0.9975660   0.0381313 
 33.2177500  -0.9979565   0.0382517 
 33.3426250  -0.9981270   0.0384695 
 33.4675000  -0.9980384   0.0391794 
 33.5923750  -0.9975829   0.0391427 
 33.7172500  -0.9974943   0.0389164 
 33.8421250  -0.9984013   0.0393650 
 33.9670000  -0.9979244   0.0395083 
 34.0918750  -0.9976682   0.0391090 
 34.2167500  -0.9970657   0.0402456 
 34.3416250  -0.9975651   0.0399432 
 34.4665000  -0.9981314   0.0404278 
 34.5913750  -0.9978078   0.0400383 
 34.7162500  -0.9976632   0.0398566 
 34.8411250  -0.9980752   0.0403124 
 34.9660000  -0.9971902   0.0404987 
 35.0908750  -0.9978546   0.0409193 
 35.2157500  -0.9972157   0.0410414 
 35.3406250  -0.9974730   0.0410799 
 35.4655000  -0.9974366   0.0416381 
 35.5903750  -0.9972137   0.0410776 
 35.7152500  -0.9978395   0.0414262 
 35.8401250  -0.9976560   0.0419643 
 35.9650000  -0.9976199   0.0418781 
 36.0898750  -0.9977191   0.0418474 
 36.2147500  -0.9975009   0.0418190 
 36.3396250  -0.9973071   0.0429079 
 36.4645000  -0.9976192   0.0422929 
 36.5893750  -0.9975959   0.0429958 
 36.7142500  -0.9974969   0.0433576 
 36.8391250  -0.9974326   0.0426361 
 36.9640000  -0.9975612   0.0424851 
 37.0888750  -0.9974115   0.0429821 
 37.2137500  -0.9978656   0.0434501 
 37.3386250  -0.9980199   0.0432335 
 37.4635000  -0.9975158   0.0436483 
 37.5883750  -0.9972325   0.0438799 
 37.7132500  -0.9973787   0.0438588 
 37.8381250  -0.9973897   0.0436487 
 37.9630000  -0.9978022   0.0442257 
 38.0878750  -0.9980902   0.0440335 
 38.2127500  -0.9973573   0.0445548 
 38.3376250  -0.9973022   0.0441445 
 38.4625000  -0.9970348   0.0449253 
 38.5873750  -0.9972144   0.0451783 
 38.7122500  -0.9980028   0.0444886 
 38.8371250  -0.9973811   0.0448876 
 38.9620000  -0.9972263   0.0449252 
 39.0868750  -0.9974631   0.0454103 
 39.2117500  -0.9973897   0.0452488 
 39.3366250  -0.9974193   0.0460018 
 39.4615000  -0.9976179   0.0461796 
 39.5863750  -0.9976192   0.0459665 
 39.7112500  -0.9977211   0.0461896 
 39.8361250  -0.9972972   0.0462236 
 39.9610000  -0.9972624   0.0465590 
 40.0858750  -0.9971785   0.0466240 
 40.2107500  -0.9978961   0.0470863 
 40.3356250  -0.9976094   0.0472533 
 40.4605000  -0.9975095   0.0471001 
 40.5853750  -0.9974146   0.0469848 
 40.7102500  -0.9971569   0.0470615 
 40.8351250  -0.9973537   0.0472820 
 40.9600000  -0.9973241   0.0471861 
 41.0848750  -0.9976736   0.0479563 
 41.2097500  -0.9973266   0.0479635 
 41.3346250  -0.9974586   0.0482960 
 41.4595000  -0.9971103   0.0480171 
 41.5843750  -0.9976467   0.0480256 
 41.7092500  -0.9973952   0.0488897 
 41.8341250  -0.9970970   0.0490706 
 41.9590000  -0.9973625   0.0494028 
 42.0838750  -0.9972674   0.0493116 
 42.2087500  -0.9974651   0.0489039 
 42.3336250  -0.9972197   0.0487010 
 42.4585000  -0.9974047   0.0495662 
 42.5833750  -0.9970395   0.0493013 
 42.7082500  -0.9976344   0.0498595 
 42.8331250  -0.9972604   0.0499214 
 42.9580000  -0.9968109   0.0500727 
 43.0828750  -0.9971419   0.0497991 
 43.2077500  -0.9971810   0.0505320 
 43.3326250  -0.9974043   0.0506095 
 43.4575000  -0.9971133   0.0504250 
 43.5823750  -0.9971513   0.0506108 
 43.7072500  -0.9972582   0.0513592 
 43.8321250  -0.9969878   0.0511292 
 43.9570000  -0.9971829   0.0511898 
 44.0818750  -0.9971033   0.0516181 
 44.2067500  -0.9971034   0.0513144 
 44.3316250  -0.9970630   0.0518818 
 44.4565000  -0.9967848   0.0523026 
 44.5813750  -0.9968015   0.0519944 
 44.7062500  -0.9970573   0.0521505 
 44.8311250  -0.9966511   0.0521334 
 44.9560000  -0.9972425   0.0527892 
 45.0808750  -0.9969754   0.0526640 
 45.2057500  -0.9968712   0.0528843 
 45.3306250  -0.9969284   0.0526189 
 45.4555000  -0.9966294   0.0529271 
 45.5803750  -0.9970090   0.0534537 
 45.7052500  -0.9969959   0.0536859 
 45.8301250  -0.9970334   0.0536214 
 45.9550000  -0.9967757   0.0535988 
 46.0798750  -0.9963270   0.0537189 
 46.2047500  -0.9974308   0.0536609 
 46.3296250  -0.9968952   0.0533548 
 46.4545000  -0.9972957   0.0536366 
 46.5793750  -0.9970372   0.0543360 
 46.7042500  -0.9969053   0.0542263 
 46.8291250  -0.9968016   0.0546575 
 46.9540000  -0.9964602   0.0547438 
 47.0788750  -0.9967421   0.0545405 
 47.2037500  -0.9969734   0.0549417 
 47.3286250  -0.9971590   0.0552269 
 47.4535000  -0.9967878   0.0554366 
 47.5783750  -0.9967900   0.0553861 
 47.7032500  -0.9971043   0.0556543 
 47.8281250  -0.9974294   0.0560160 
 47.9530000  -0.9965828   0.0558153 
 48.0778750  -0.9968481   0.0558627 
 48.2027500  -0.9968878   0.0564482 
 48.3276250  -0.9970261   0.0560411 
 48.4525000  -0.9968048   0.0563671 
 48.5773750  -0.9962330   0.0565615 
 48.7022500  -0.9971754   0.0564222 
 48.8271250  -0.9969269   0.0568489 
 48.9520000  -0.9967244   0.0571865 
 49.0768750  -0.9969414   0.0572609 
 49.2017500  -0.9971892   0.0569001 
 49.3266250  -0.9967953   0.0575048 
 49.4515000  -0.9970764   0.0578032 
 49.5763750  -0.9969750   0.0583274 
 49.7012500  -0.9972668   0.0579256 
 49.8261250  -0.9967487   0.0581507 
 49.9510000  -0.9965959   0.0579110 
 50.0758750  -0.9971893   0.0589134 
 50.2007500  -0.9962225   0.0588087 
 50.3256250  -0.9967181   0.0588953 
 50.4505000  -0.9964456   0.0589381 
 50.5753750  -0.9966842   0.0584653 
 50.7002500  -0.9968966   0.0596652 
 50.8251250  -0.9967450   0.0590496 
 50.9500000  -0.9967410   0.0590509 
 51.0748750  -0.9967396   0.0593433 
 51.1997500  -0.9971803   0.0599299 
 51.3246250  -0.9967381   0.0599838 
 51.4495000  -0.9965101   0.0603020 
 51.5743750  -0.9970011   0.0597803 
 51.6992500  -0.9963692   0.0605399 
 51.8241250  -0.9965440   0.0605887 
 51.9490000  -0.9965451   0.0608454 
 52.0738750  -0.9965976   0.0612940 
 52.1987500  -0.9963728   0.0611309 
 52.3236250  -0.9963381   0.0606568 
 52.4485000  -0.9962449   0.0612169 
 52.5733750  -0.9968203   0.0617287 
 52.6982500  -0.9967662   0.0612918 
 52.8231250  -0.9971427   0.0614799 
 52.9480000  -0.9960657   0.0615454 
 53.0728750  -0.9961630   0.0623752 
 53.1977500  -0.9967528   0.0620677 
 53.3226250  -0.9968165   0.0624336 
 53.4475000  -0.9959157   0.0614242 
 53.5723750  -0.9967080   0.0629222 
 53.6972500  -0.9968426   0.0624521 
 53.8221250  -0.9964859   0.0633065 
 53.9470000  -0.9965185   0.0627282 
 54.0718750  -0.9966860   0.0635712 
 54.1967500  -0.9962035   0.0635170 
 54.3216250  -0.9964643   0.0638779 
 54.4465000  -0.9962262   0.0632679 
 54.5713750  -0.9966480   0.0637254 
 54.6962500  -0.9962115   0.0640276 
 54.8211250  -0.9965522   0.0635966 
 54.9460000  -0.9964174   0.0641609 
 55.0708750  -0.9969928   0.0645286 
 55.1957500  -0.9959331   0.0647177 
 55.3206250  -0.9964256   0.0643883 
 55.4455000  -0.9960823   0.0649349 
 55.5703750  -0.9962129   0.0652478 
 55.6952500  -0.9958053   0.0647921 
 55.8201250  -0.9960728   0.0645184 
 55.9450000  -0.9961936   0.0653092 
 56.0698750  -0.9962090   0.0651794 
 56.1947500  -0.9967591   0.0653212 
 56.3196250  -0.9958030   0.0656722 
 56.4445000  -0.9960824   0.0657967 
 56.5693750  -0.9953624   0.0660835 
 56.6942500  -0.9960475   0.0662184 
 56.8191250  -0.9965160   0.0660518 
 56.9440000  -0.9961874   0.0670892 
 57.0688750  -0.9958028   0.0667170 
 57.1937500  -0.9963201   0.0669867 
 57.3186250  -0.9955343   0.0671418 
 57.4435000  -0.9960538   0.0678056 
 57.5683750  -0.9962475   0.0676642 
 57.6932500  -0.9957875   0.0677529 
 57.8181250  -0.9963267   0.0673946 
 57.9430000  -0.9958291   0.0679373 
 58.0678750  -0.9963251   0.0683177 
 58.1927500  -0.9956169   0.0683927 
 58.3176250  -0.9957697   0.0684654 
 58.4425000  -0.9953605   0.0681727 
 58.5673750  -0.9957576   0.0687665 
 58.6922500  -0.9957163   0.0688279 
 58.8171250  -0.9960851   0.0688724 
 58.9420000  -0.9957659   0.0690289 
 59.0668750  -0.9958839   0.0689925 
 59.1917500  -0.9958539   0.0690913 
 59.3166250  -0.9962404   0.0693481 
 59.4415000  -0.9957200   0.0694406 
 59.5663750  -0.9958094   0.0694635 
 59.6912500  -0.9958314   0.0697477 
 59.8161250  -0.9960398   0.0702097 
 59.9410000  -0.9956962   0.0704190 
 60.0658750  -0.9955893   0.0703576 
 60.1907500  -0.9958810   0.0697945 
 60.3156250  -0.9954272   0.0704769 
 60.4405000  -0.9959433   0.0705377 
 60.5653750  -0.9965387   0.0709938 
 60.6902500  -0.9956639   0.0708103 
 60.8151250  -0.9958522   0.0712562 
 60.9400000  -0.9953671   0.0712227 
 61.0648750  -0.9952542   0.0718150 
 61.1897500  -0.9958266   0.0711657 
 61.3146250  -0.9957078   0.0711847 
 61.4395000  -0.9956309   0.0715577 
 61.5643750  -0.9957918   0.0721542 
 61.6892500  -0.9961028   0.0716892 
 61.8141250  -0.9953681   0.0722465 
 61.9390000  -0.9954261   0.0721411 
 62.0638750  -0.9953296   0.0727173 
 62.1887500  -0.9954190   0.0726440 
 62.3136250  -0.9954963   0.0730895 
 62.4385000  -0.9953619   0.0730728 
 62.5633750  -0.9953389   0.0729995 
 62.6882500  -0.9956879   0.0733852 
 62.8131250  -0.9946609   0.0735021 
 62.9380000  -0.9955767   0.0732520 
 63.0628750  -0.9953241   0.0733120 
 63.1877500  -0.9949906   0.0738941 
 63.3126250  -0.9955565   0.0744418 
 63.4375000  -0.9954534   0.0745189 
 63.5623750  -0.9959235   0.0738548 
 63.6872500  -0.9956158   0.0743396 
 63.8121250  -0.9954928   0.0738503 
 63.9370000  -0.9947306   0.0747646 
 64.0618750  -0.9958454   0.0748712 
 64.1867500  -0.9957112   0.0753223 
 64.3116250  -0.9951658   0.0753559 
 64.4365000  -0.9954355   0.0750009 
 64.5613750  -0.9946263   0.0756277 
 64.6862500  -0.9952290   0.0759643 
 64.8111250  -0.9950111   0.0752581 
 64.9360000  -0.9952813   0.0757356 
 65.0608750  -0.9952832   0.0761867 
 65.1857500  -0.9950095   0.0752520 
 65.3106250  -0.9952449   0.0767236 
 65.4355000  -0.9957060   0.0766032 
 65.5603750  -0.9953014   0.0761420 
 65.6852500  -0.9949293   0.0765083 
 65.8101250  -0.9950602   0.0771706 
 65.9350000  -0.9954376   0.0771431 
 66.0598750  -0.9950516   0.0772326 
 66.1847500  -0.9953000   0.0770692 
 66.3096250  -0.9947750   0.0775193 
 66.4345000  -0.9949634   0.0770992 
