! ListType=Lin
!
!Created with skrf (http://scikit-rf.org).
# MHz S RI R 50.0 
!freq ReS11 ImS11
1.0 0.9996630148896766 -0.0440038785353231
1.124875 0.9991971864480228 -0.049025166457280125
1.24975 0.9989100709529652 -0.05473609196633764
1.374625 0.9980467201845429 -0.05991121826596753
1.4995 0.9978898070229513 -0.0657370252925497
1.624375 0.9971524355267357 -0.06995859304069635
1.74925 0.9970595338063106 -0.075656223692731
1.874125 0.996578196540702 -0.0816408829716107
1.999 0.9969560436751331 -0.08746809226274355
2.123875 0.9955018101570011 -0.09236279298008093
2.24875 0.9955485810161584 -0.09786288102330468
2.373625 0.9942848995884674 -0.10324342096000061
2.4985 0.9946570872542335 -0.1088259936752698
2.623375 0.9938867313350741 -0.11414527456957942
2.74825 0.9926361809601006 -0.11966339750008032
2.873125 0.9922591349225306 -0.12414776524967766
2.998 0.9919896872791432 -0.12995944058137887
3.122875 0.9906583803716176 -0.1352970635770667
3.24775 0.9902201155793308 -0.14064186609957807
3.372625 0.9891457216252452 -0.14576725528126805
3.4975 0.9887214772882184 -0.15155563975800515
3.622375 0.9875817479236506 -0.15688169346079323
3.74725 0.9874101257751895 -0.16250416821158253
3.872125 0.9860090305851733 -0.16754268614215834
3.997 0.9849683366656444 -0.1730792880704162
4.121875 0.9835154113066041 -0.17786065767721904
4.24675 0.9832338879789506 -0.18331621833654044
4.371625 0.982097216077132 -0.1890237702974592
4.4965 0.9809981965113079 -0.19397414909575159
4.621375 0.9797426963021691 -0.1995145032906921
4.74625 0.9791223872040641 -0.20453317518849795
4.871125 0.9776028165156693 -0.20960286148388102
4.996 0.9766302689155993 -0.21551143171023912
5.120875 0.9756105138794898 -0.21994542193067929
5.24575 0.9742915666300979 -0.22530341095972167
5.370625 0.9735421609767796 -0.23048106481741015
5.4955 0.9709651209220228 -0.23588311099077877
5.620375 0.9704887632721259 -0.24174878847000347
5.74525 0.9696106195758336 -0.2464866332132777
5.870125 0.9675286395460514 -0.2513966969097177
5.995 0.9666096414039561 -0.25660376769203586
6.119875 0.9650941371637164 -0.2620155095959341
6.24475 0.9642426668806503 -0.26687751454331754
6.369625 0.9625223227733999 -0.27162558766139666
6.4945 0.9606284129133181 -0.27746485550313627
6.619375 0.9590853279193438 -0.2822585865686954
6.74425 0.9572973705121354 -0.28706592748302645
6.869125 0.9563978964192311 -0.2929016319607428
6.994 0.9544519087231527 -0.2972847447747996
7.118875 0.9534976426078874 -0.30236599354547755
7.24375 0.9512987919297703 -0.3072684560657536
7.368625 0.9498022611232664 -0.31250093541179735
7.4935 0.9480120654503323 -0.31750950653320964
7.618375 0.9458503409452879 -0.32261486653609184
7.74325 0.9447373308785564 -0.32791848696420145
7.868125 0.9425867064026665 -0.333248243212125
7.993 0.9405912153885922 -0.3377598414782638
8.117875 0.9394643928703601 -0.34264092738156826
8.24275 0.9370746268992612 -0.34759138602131767
8.367625 0.9358655605560984 -0.35248361748881063
8.4925 0.9344726936953552 -0.3576521762951288
8.617375 0.9315314390049761 -0.36219186657652036
8.74225 0.9299434165384951 -0.36655302409744694
8.867125 0.9281277533688149 -0.37249171452253904
8.992 0.9258014004693033 -0.3768484977386576
9.116875 0.9241213890733879 -0.38221898697848644
9.24175 0.9219624816637007 -0.38697116032632983
9.366625 0.9200838643533641 -0.3918894248775533
9.4915 0.9178189202504038 -0.39645816800133415
9.616375 0.9164925437908504 -0.4009089684575805
9.74125 0.9141755412904242 -0.4057311799813132
9.866125 0.9114958019244462 -0.41083062893317346
9.991 0.9102806379583118 -0.415788849876219
10.115875 0.907647621893486 -0.4209273486580528
10.24075 0.9054733223564083 -0.42443996676468043
10.365625 0.9031293786939023 -0.4290727958278566
10.4905 0.9003685969898544 -0.43390420023647736
10.615375 0.8986923832735262 -0.4394325382049815
10.74025 0.8964448103691651 -0.4424900162582519
10.865125 0.8940508274252525 -0.4477398155459602
10.99 0.8908056478427574 -0.45292786808228735
11.114875 0.889104743053218 -0.45693601833276126
11.23975 0.8872936304861118 -0.4613347844154811
11.364625 0.8847753069416647 -0.4659392898693673
11.4895 0.882179980030897 -0.47021128920094246
11.614375 0.8793885697757585 -0.4747317274597055
11.73925 0.8768625270766359 -0.4802159353005833
11.864125 0.8747795039169943 -0.4842345184107592
11.989 0.8720601172497267 -0.4883099676078199
12.113875 0.8697692215304406 -0.4920739881355025
12.23875 0.8674748585297694 -0.49762432378149957
12.363625 0.864626547785777 -0.501604644861557
12.4885 0.8620571841714882 -0.5061808954863452
12.613375 0.8597717395077465 -0.5102852568070768
12.73825 0.8570712396241652 -0.5150019044124845
12.863125 0.8542924584599707 -0.5196603106819889
12.988 0.8514188813888502 -0.523767438488425
13.112875 0.8487017822511786 -0.5270276289892266
13.23775 0.8466209319126314 -0.5320979160723478
13.362625 0.8438444986297783 -0.536325930531293
13.4875 0.8410466656223247 -0.5404647732003828
13.612375 0.8374226967605486 -0.5445588201280964
13.73725 0.8357438585390619 -0.5489169195157324
13.862125 0.8329913140579468 -0.5530407237326185
13.987 0.8294574810097238 -0.5571392168999872
14.111875 0.8270756801043362 -0.5606437387506179
14.23675 0.8247800854964439 -0.5649822467370251
14.361625 0.822433158907354 -0.5690006971300116
14.4865 0.8187861504698944 -0.5733919071676186
14.611375 0.8160108326047948 -0.577476604570689
14.73625 0.8129601227202663 -0.5811853635430662
14.861125 0.8107572126121747 -0.5857495179502598
14.986 0.8074631194905435 -0.5894097086892174
15.110875 0.804337061814559 -0.5934955875669726
15.23575 0.8026557733376467 -0.5971135497751286
15.360625 0.7986899052513385 -0.6009941814154353
15.4855 0.7953827278902983 -0.6048438026251756
15.610375 0.7929048597201721 -0.6090528100784968
15.73525 0.7894440342409462 -0.6130727380278369
15.860125 0.7870261653804186 -0.6170709422952791
15.985 0.7838618817395929 -0.6208388645428843
16.109875 0.7805819503212311 -0.6247655293410319
16.23475 0.7779474722928423 -0.6282435507701052
16.359625 0.7746248337225746 -0.6318400313989565
16.4845 0.7717062164321088 -0.6354408314682554
16.609375 0.7686490758834227 -0.6384562454296563
16.73425 0.7657252101880239 -0.6424878409740795
16.859125 0.7626218678682464 -0.6468241617824504
16.984 0.7590230999732842 -0.6497466876578091
17.108875 0.7566915495838502 -0.6537869229842954
17.23375 0.7532621902787909 -0.6575377417490371
17.358625 0.75017321471689 -0.660954235488538
17.4835 0.7470389262528568 -0.6645556951811475
17.608375 0.7430253284837164 -0.6674295584684864
17.73325 0.740717914435739 -0.6706537034481833
17.858125 0.7373836057712062 -0.6753954955166053
17.983 0.7345437604211218 -0.6780135081007548
18.107875 0.7311026275370434 -0.6819552748804825
18.23275 0.7280116032546415 -0.6851590116067747
18.357625 0.7247167596093522 -0.6891107735245106
18.4825 0.7219280965267781 -0.6909064614927194
18.607375 0.7184566858791617 -0.6951638277611545
18.73225 0.7148631726635193 -0.6989043713379877
18.857125 0.7117957855917727 -0.7023176614390912
18.982 0.7084793567557541 -0.704660321733233
19.106875 0.7047920233916932 -0.7082850610084065
19.23175 0.7011259356779093 -0.7115532351876666
19.356625 0.6979471726572178 -0.7148769741433039
19.4815 0.6950879203336682 -0.7186026628108377
19.606375 0.691088810993748 -0.7221440208928525
19.73125 0.6887993897946386 -0.7251007607275013
19.856125 0.6850739678285419 -0.7273782358123129
19.981 0.6822567407952722 -0.7303641301000086
20.105875 0.6780465809213817 -0.7338361020328331
20.23075 0.6751405746323291 -0.7371604502297431
20.355625 0.672399767650823 -0.7393598404632351
20.4805 0.6684568903625346 -0.7427713754462575
20.605375 0.6655576389624351 -0.7458997664503482
20.73025 0.6617677286984183 -0.748726124784101
20.855125 0.6586360971709184 -0.7521441588497302
20.98 0.6550811316058459 -0.7553930805563622
21.104875 0.6513443078436758 -0.7583339224622727
21.22975 0.6474372008046119 -0.7605072855365869
21.354625 0.6449354173478592 -0.7640271372412017
21.4795 0.6410312157108292 -0.7665977256221912
21.604375 0.637872554626921 -0.7696060534578274
21.72925 0.6345124349690592 -0.7717176081664654
21.854125 0.6308858834495668 -0.7749185162946655
21.979 0.6269458620355528 -0.7781391152388962
22.103875 0.6246432316922604 -0.7809154039795391
22.22875 0.6206216244952956 -0.7833599771930463
22.353625 0.6173731191341276 -0.7863496689790844
22.4785 0.6131584524251218 -0.7885034883299744
22.603375 0.6108050337109566 -0.7916417990534081
22.72825 0.6072202779229108 -0.794408233893139
22.853125 0.6039753883721073 -0.7966362606898862
22.978 0.5999379995665487 -0.798721892789677
23.102875 0.5964308630678133 -0.801501541440612
23.22775 0.5932092707758274 -0.8039547986139353
23.352625 0.5904997373613813 -0.8067992205831627
23.4775 0.5854365319955857 -0.8097026619757535
23.602375 0.5828625696142622 -0.8118832192969505
23.72725 0.578707634729422 -0.8148263526776243
23.852125 0.5753409042645211 -0.8171844646873452
23.977 0.57267163789685 -0.8195599342309019
24.101875 0.5681798600926073 -0.8225870888232374
24.22675 0.5645596832020883 -0.8247500227253121
24.351625 0.5615938775642972 -0.8267852780267637
24.4765 0.5574844206127607 -0.8294671466001494
24.601375 0.5541544752332943 -0.8318225966641639
24.72625 0.5507228207665492 -0.8343909649461325
24.851125 0.5475895336066822 -0.8364901538314453
24.976 0.544269586161216 -0.8384282060378064
25.100875 0.5406144563032076 -0.8408115965286356
25.22575 0.5373756810185852 -0.8425644976856124
25.350625 0.5337199183077764 -0.8447272995481983
25.4755 0.5302861402456657 -0.8480000446234435
25.600375 0.5264478604652206 -0.849444397839964
25.72525 0.5221722739763947 -0.851734622121432
25.850125 0.5194441065727281 -0.8536130326887317
25.975 0.514931254820147 -0.8556934224514092
26.099875 0.5121226566727792 -0.8578114303720394
26.22475 0.5089578372733243 -0.8607564209642456
26.349625 0.5055802613934933 -0.8628681533320921
26.4745 0.5010532417773487 -0.8639615690050291
26.599375 0.49837910221168324 -0.8663290959991865
26.72425 0.49481544140601463 -0.8690894389523638
26.849125 0.49060920451142503 -0.870378070198565
26.974 0.48788084071494897 -0.8720452536463814
27.098875 0.4836466405189829 -0.8744160886338201
27.22375 0.48080554365083095 -0.8760625802609235
27.348625 0.4771765528536142 -0.8782885975337347
27.4735 0.4737072049261681 -0.8800976061523544
27.598375 0.47034340420774495 -0.8818057133301139
27.72325 0.46597374555129545 -0.8832131934159574
27.848125 0.46291483085250773 -0.8855556021795837
27.973 0.4592248824156233 -0.8881867648138805
28.097875 0.4558387456955249 -0.8893557594931198
28.22275 0.4523215105677962 -0.8906879781299404
28.347625 0.44924513260303556 -0.892847789540401
28.4725 0.4461182422186604 -0.8944448298009582
28.597375 0.4422347397451564 -0.8966784435216495
28.72225 0.4386829795395513 -0.898116158073572
28.847125 0.4350256568817627 -0.9001905784761537
28.972 0.4312673895862515 -0.9016561517728465
29.096875 0.4279021420969478 -0.9035955202302954
29.22175 0.4239095751287031 -0.9050926068642706
29.346625 0.42194656130232644 -0.9067332474081672
29.4715 0.4174297845462718 -0.9075773813563842
29.596375 0.41445920472114767 -0.9097070802638854
29.72125 0.41035112626715464 -0.911052246910456
29.846125 0.407028506437498 -0.9124923585578619
29.971 0.40389929915720285 -0.913465910515604
30.095875 0.4001176122282235 -0.9161570089370183
30.22075 0.3963013854367305 -0.9173246580949066
30.345625 0.392874134043387 -0.9192457342797002
30.4705 0.3892769186938672 -0.9208880955971082
30.595375 0.38594424243623543 -0.9210490834794685
30.72025 0.38349529208303873 -0.92336748735319
30.845125 0.3790921110502243 -0.9247584624543183
30.97 0.3757343542083512 -0.9259453161016967
31.094875 0.3721899403877651 -0.9277747442970885
31.21975 0.369452134404832 -0.9285911559530016
31.344625 0.3666310174958749 -0.9302036823160442
31.4695 0.36187239536121174 -0.9317262379931179
31.594375 0.35902279468966986 -0.9326038422034464
31.71925 0.3548707191330381 -0.9340873365046609
31.844125 0.3519053320077525 -0.9354689811897599
31.969 0.3484580739179864 -0.9369691153795572
32.093875 0.34490887477395904 -0.938706033085086
32.21875 0.34090564334050905 -0.9394314983403299
32.343625 0.33818963749292186 -0.9406816671912059
32.4685 0.33449201509913395 -0.9414931009742842
32.593375 0.33191918487127103 -0.9425707985455007
32.71825 0.32778378494113086 -0.9443635398645069
32.843125 0.3249648162381612 -0.9442536751759063
32.968 0.32094124247088057 -0.9465329354792613
33.092875 0.3178835571363894 -0.94823974679937
33.21775 0.3137323028935213 -0.9485197219786552
33.342625 0.3105323230327668 -0.9496985669412384
33.4675 0.30758984627312796 -0.9504078628849799
33.592375 0.3046325188276404 -0.9529038361623892
33.71725 0.3005024109467658 -0.9543817557670891
33.842125 0.2978437013724517 -0.9537581517041753
33.967 0.29431627299750796 -0.9545654974079623
34.091875 0.29069786311089774 -0.955894387121662
34.21675 0.28734993292696503 -0.9575203258809202
34.341625 0.28437825659417076 -0.9590097084696412
34.4665 0.2808468045911693 -0.9584153109280833
34.591375 0.2769447413099496 -0.959808585202399
34.71625 0.27415768296076853 -0.9615626512815638
34.841125 0.27004403317965536 -0.9618776338086346
34.966 0.2675718634129414 -0.9628728682286865
35.090875 0.26410388655670325 -0.9637173172484372
35.21575 0.2603530144168448 -0.9650971213311856
35.340625 0.2571574901992301 -0.965668930458231
35.4655 0.25401455030673864 -0.9664130192940377
35.590375 0.25172452979425197 -0.9670569074891899
35.71525 0.24687868476599895 -0.9684309658309753
35.840125 0.24434402258323012 -0.9691429938817745
35.965 0.24175563743916512 -0.9695138573704837
36.089875 0.23857033808537065 -0.970163870629154
36.21475 0.23393401725059199 -0.9712713600708799
36.339625 0.23176088170491543 -0.9713518422540685
36.4645 0.22881769178946243 -0.9736395334035357
36.589375 0.22473001058632092 -0.9733697983186249
36.71425 0.2212951179726766 -0.9746701293762718
36.839125 0.21837983267415234 -0.9754484315787288
36.964 0.21423352189256778 -0.9761234411444275
37.088875 0.21225900914092644 -0.9763554448627927
37.21375 0.2083759997482088 -0.9771904603606463
37.338625 0.20537706316731935 -0.977726466930126
37.4635 0.20237245301476225 -0.9779602523051207
37.588375 0.19867545471664028 -0.9794247548911104
37.71325 0.19622118500311037 -0.9803924519448557
37.838125 0.19304097327444558 -0.9808635416747373
37.963 0.1895451853158977 -0.9810373953807621
38.087875 0.18569222471891123 -0.9822746631147723
38.21275 0.1834394310208053 -0.9828560530562973
38.337625 0.18048558804534648 -0.9830630142621166
38.4625 0.17719045104718667 -0.9835463851871712
38.587375 0.17460651989645132 -0.9841194900344578
38.71225 0.1710071064673293 -0.9841893904029326
38.837125 0.1671728767979515 -0.985211174792077
38.962 0.16420591787466204 -0.9857837488071923
39.086875 0.1616332874431498 -0.9859062226539146
39.21175 0.1580284232420784 -0.986456004395877
39.336625 0.15523293785447967 -0.9872896672508271
39.4615 0.15109083278341634 -0.9875421906063685
39.586375 0.1489584330687619 -0.9874233974997029
39.71125 0.1457132864700123 -0.9879627665470431
39.836125 0.14268651925688025 -0.988988425369473
39.961 0.14059288722351987 -0.9897704886304262
40.085875 0.13686697394652897 -0.9901123615340256
40.21075 0.13332355639434218 -0.9908345439407511
40.335625 0.1311092416108895 -0.990317243533545
40.4605 0.1278247607308518 -0.9912765812829492
40.585375 0.12418045261777272 -0.9913135424191049
40.71025 0.12276232918675767 -0.9927174947221045
40.835125 0.11806818304966077 -0.9928065093316712
40.96 0.11566130658232876 -0.9930564815363991
41.084875 0.1124367147986457 -0.9930891358304712
41.20975 0.10994348477905086 -0.9933271731299589
41.334625 0.10631413677549828 -0.9941273665936119
41.4595 0.10379859344153786 -0.9937483103672518
41.584375 0.10048943059357363 -0.9942714754973481
41.70925 0.09845237285782443 -0.9944251303612546
41.834125 0.0947933830412877 -0.9950313445388529
41.959 0.09246987802477302 -0.9948690681719025
42.083875 0.08925283672671624 -0.9956782591181579
42.20875 0.08604726261654055 -0.9966041503122136
42.333625 0.08300667524177285 -0.996237006359658
42.4585 0.07963786273045537 -0.9960836242656247
42.583375 0.077563288013907 -0.9964096592320077
42.70825 0.07397558411931354 -0.9958317234961428
42.833125 0.07155193544085298 -0.9965714097619598
42.958 0.0683983565617351 -0.9975108895347994
43.082875 0.06582003002929748 -0.9966939310562264
43.20775 0.06289606691863209 -0.9975678549763627
43.332625 0.06010503211462931 -0.9972789164470219
43.4575 0.056581843053032876 -0.9982337489814849
43.582375 0.05369898212066415 -0.997668217247864
43.70725 0.052198531312191154 -0.9981956015254094
43.832125 0.0482762162313759 -0.9982243084471656
43.957 0.04612418921817191 -0.9989935069421563
44.081875 0.043899654740152005 -0.9989080164277776
44.20675 0.04012466191824515 -0.9986601233079597
44.331625 0.03750911525261136 -0.999120484059931
44.4565 0.034962358779942526 -0.9992274488139443
44.581375 0.031019264954800174 -0.9990342418602849
44.70625 0.02926661260308666 -0.9985994112971524
44.831125 0.025096456786443233 -0.9991569792910562
44.956 0.024552899304471798 -0.9992102788193367
45.080875 0.021157804030842275 -0.99931404242219
45.20575 0.018183080120331097 -0.9989870096425469
45.330625 0.015294430166894135 -0.9996089550258823
45.4555 0.011921664157584888 -0.9987317533882235
45.580375 0.009634063465223275 -0.9993425297621537
45.70525 0.007074573526781924 -0.998901721382097
45.830125 0.004847927877490721 -0.9988125740125677
45.955 0.001707000844626827 -0.9991681713888522
46.079875 -0.0014431923339238706 -0.9993460963217633
46.20475 -0.003996402426911627 -0.9985623129551195
46.329625 -0.00672812495236097 -0.999471385667777
46.4545 -0.00964995037624572 -0.9989302774923556
46.579375 -0.012064813315675826 -1.000168404838659
46.70425 -0.015158225843341477 -0.9993782762373928
46.829125 -0.01756679366597702 -0.9991966836013486
46.954 -0.020416149339736844 -0.9986520621738826
47.078875 -0.02320836753066524 -0.9989469397880291
47.20375 -0.024852461796228742 -0.9993391039322188
47.328625 -0.027621166146358067 -0.9979152198994117
47.4535 -0.03058414845911489 -0.9987126012315504
47.578375 -0.03281412722410709 -0.9984161256268624
47.70325 -0.03477685538919606 -0.9984458354716305
47.828125 -0.0376583226628997 -0.998181320073281
47.953 -0.04093089361807423 -0.9979953759287541
48.077875 -0.043038043217686395 -0.9985876431806615
48.20275 -0.04603090242102387 -0.9980188678690105
48.327625 -0.048555065280887655 -0.9980828111192936
48.4525 -0.05113654665660794 -0.9981233821870836
48.577375 -0.05294542540572461 -0.9986719600150441
48.70225 -0.056969485309247225 -0.997557546431527
48.827125 -0.058978830087244416 -0.9972622800774491
48.952 -0.06128728470162281 -0.9967729658929256
49.076875 -0.06350992243803039 -0.9978166147723165
49.20175 -0.06614210619186789 -0.996720535226367
49.326625 -0.06843709254827701 -0.9971796431778412
49.4515 -0.07122263513160387 -0.9958593838296785
49.576375 -0.07250139449927856 -0.9963275707478605
49.70125 -0.07665530496599293 -0.996302436575584
49.826125 -0.07798527337882483 -0.9966964215405487
49.951 -0.08102458954492275 -0.9960663875899644
50.075875 -0.08382168112755611 -0.9948622659400459
50.20075 -0.08576256243969838 -0.9960958386697387
50.325625 -0.08795530110642907 -0.9951270156000297
50.4505 -0.09066747726215862 -0.9951527909467699
50.575375 -0.09381006788966112 -0.9947783501680193
50.70025 -0.09557249053874811 -0.9953162440127292
50.825125 -0.09899081619144928 -0.9945686361274898
50.95 -0.09963762412080696 -0.9941078778306869
51.074875 -0.10315829093356393 -0.9942648773658258
51.19975 -0.10555287978672723 -0.9935425871753587
51.324625 -0.108321741037125 -0.9932749592806875
51.4495 -0.11018900570420076 -0.9934520203732475
51.574375 -0.11328913419931486 -0.9930928600580702
51.69925 -0.11511082704272169 -0.9927632803147473
51.824125 -0.1170180372671269 -0.993111721078086
51.949 -0.12008688653571081 -0.9917690099200249
52.073875 -0.12187888571107597 -0.9921176058899407
